Time [s],Packet ID,MOSI,MISO
0.000000240000000,,0x1BA5,
0.000007440000000,,0x55BA,
0.000014640000000,,0x3A2C,
0.000021820000000,,0x2D5E,
0.000029020000000,,0x791B,
0.000036190000000,,0x7E18,
0.000043300000000,,0x3AD8,
0.000050480000000,,0x0C15,
0.000057650000000,,0x137C,
0.000064810000000,,0x7032,
0.000071960000000,,0x1974,
0.000079140000000,,0x5548,
0.000086350000000,,0x6C0F,
0.000093500000000,,0x1304,
0.000100660000000,,0x35CB,
0.000107860000000,,0x2221,
0.000115030000000,,0x74F9,
0.000122180000000,,0x1423,
0.000129350000000,,0x17C2,
0.000136510000000,,0x120B,
0.000143680000000,,0x0B9B,
0.000150850000000,,0x3B83,
0.000158010000000,,0x115B,
0.000165210000000,,0x4091,
0.000172350000000,,0x281D,
0.000179530000000,,0x3717,
0.000186710000000,,0x0844,
0.000193870000000,,0x49EA,
0.000201060000000,,0x1B07,
0.000208210000000,,0x46F5,
0.000215380000000,,0x1729,
0.000222580000000,,0x4CD6,
0.000229770000000,,0x2B51,
0.000236980000000,,0x1A1C,
0.000244140000000,,0x5ACC,
0.000251340000000,,0x7B2B,
0.000258540000000,,0x7545,
0.000265730000000,,0x75AA,
0.000272930000000,,0x0943,
0.000280100000000,,0x33D2,
0.000287280000000,,0x3613,
0.000294460000000,,0x6BEB,
0.000301630000000,,0x6F45,
0.000308810000000,,0x0D21,
0.000315990000000,,0x7035,
0.000323140000000,,0x6691,
0.000330310000000,,0x07E3,
0.000337450000000,,0x47E2,
0.000344580000000,,0x290A,
0.000351770000000,,0x4D72,
0.000358970000000,,0x4AAB,
0.000366200000000,,0x1C9B,
0.000373380000000,,0x7F4D,
0.000380530000000,,0x1496,
0.000387740000000,,0x3F73,
0.000394900000000,,0x4115,
0.000402070000000,,0x0D1A,
0.000409250000000,,0x2D2C,
0.000416440000000,,0x6990,
0.000423620000000,,0x7CD6,
0.000430800000000,,0x01FA,
0.000437920000000,,0x53D0,
0.000445100000000,,0x3618,
0.000452250000000,,0x3614,
0.000459430000000,,0x5048,
0.000466610000000,,0x7EA5,
0.000473800000000,,0x1247,
0.000480970000000,,0x28F6,
0.000488150000000,,0x69CA,
0.000495340000000,,0x288E,
0.000502520000000,,0x6875,
0.000509720000000,,0x5090,
0.000516870000000,,0x7D4F,
0.000524040000000,,0x4A71,
0.000531210000000,,0x0E6B,
0.000538380000000,,0x2A56,
0.000545610000000,,0x6024,
0.000552760000000,,0x77D8,
0.000559920000000,,0x5635,
0.000567130000000,,0x0D29,
0.000574330000000,,0x345D,
0.000581530000000,,0x5227,
0.000588710000000,,0x4F5F,
0.000595870000000,,0x6B3C,
0.000603020000000,,0x5722,
0.000610210000000,,0x330A,
0.000617390000000,,0x35F9,
0.000624560000000,,0x33DD,
0.000631740000000,,0x49D8,
0.000638900000000,,0x4EBD,
0.000646100000000,,0x389F,
0.000653260000000,,0x793C,
0.000660390000000,,0x0146,
0.000667540000000,,0x3784,
0.000674700000000,,0x5726,
0.000681900000000,,0x113E,
0.000689050000000,,0x2FA2,
0.000696220000000,,0x1783,
0.000703370000000,,0x5FB7,
0.000710530000000,,0x71A9,
0.000717700000000,,0x07A3,
0.000724850000000,,0x4695,
0.000732040000000,,0x16E5,
0.000739240000000,,0x2CCE,
0.000746430000000,,0x3A33,
0.000753600000000,,0x52C8,
0.000760780000000,,0x33B6,
0.000767960000000,,0x51AD,
0.000775180000000,,0x52E3,
0.000782360000000,,0x6EF2,
0.000789520000000,,0x3157,
0.000796710000000,,0x51B9,
0.000803890000000,,0x34CC,
0.000811070000000,,0x5819,
0.000818240000000,,0x59ED,
0.000825420000000,,0x393D,
0.000832600000000,,0x6FAE,
0.000839760000000,,0x53FC,
0.000846910000000,,0x50FF,
0.000854060000000,,0x470E,
0.000861190000000,,0x4C74,
0.000868360000000,,0x7C58,
0.000875520000000,,0x7452,
0.000882710000000,,0x0FCF,
0.000889830000000,,0x4BAC,
0.000897020000000,,0x66A3,
0.000904210000000,,0x5259,
0.000911410000000,,0x3988,
0.000918570000000,,0x471F,
0.000925720000000,,0x00E2,
0.000932850000000,,0x567E,
0.000940030000000,,0x51A1,
0.000947220000000,,0x34BF,
0.000954400000000,,0x401F,
0.000961510000000,,0x5DB5,
0.000968710000000,,0x6B08,
0.000975870000000,,0x75F0,
0.000983020000000,,0x195D,
0.000990210000000,,0x1916,
0.000997390000000,,0x01D8,
0.001004520000000,,0x4271,
0.001011690000000,,0x64C2,
0.001018850000000,,0x14E5,
0.001026040000000,,0x6333,
0.001033200000000,,0x0606,
0.001040330000000,,0x6BA4,
0.001047530000000,,0x55BF,
0.001054720000000,,0x54D3,
0.001061920000000,,0x72D8,
0.001069080000000,,0x00D9,
0.001076230000000,,0x4F21,
0.001083380000000,,0x1DEB,
0.001090560000000,,0x7B01,
0.001097690000000,,0x64CA,
0.001104870000000,,0x508D,
0.001112060000000,,0x5785,
0.001119230000000,,0x4EBA,
0.001126410000000,,0x477A,
0.001133590000000,,0x2B97,
0.001140780000000,,0x2AAB,
0.001148020000000,,0x0D8A,
0.001155200000000,,0x2F9F,
0.001162350000000,,0x79B4,
0.001169510000000,,0x47C0,
0.001176640000000,,0x7CED,
0.001183810000000,,0x5CE3,
0.001190960000000,,0x5CD1,
0.001198140000000,,0x4D2D,
0.001205350000000,,0x700C,
0.001212460000000,,0x2A92,
0.001219670000000,,0x05CF,
0.001226820000000,,0x6EF8,
0.001233960000000,,0x6425,
0.001241150000000,,0x6822,
0.001248310000000,,0x2E5F,
0.001255480000000,,0x7FF0,
0.001262570000000,,0x784F,
0.001269710000000,,0x58DB,
0.001276890000000,,0x0F28,
0.001284050000000,,0x376B,
0.001291250000000,,0x2BCF,
0.001298430000000,,0x2BAF,
0.001305630000000,,0x2A63,
0.001312820000000,,0x4A7B,
0.001319990000000,,0x5B19,
0.001327170000000,,0x13CD,
0.001334350000000,,0x7AB7,
0.001341530000000,,0x5031,
0.001348680000000,,0x7797,
0.001355840000000,,0x6CCF,
0.001362990000000,,0x54DB,
0.001370190000000,,0x36B0,
0.001377370000000,,0x346F,
0.001384540000000,,0x079D,
0.001391700000000,,0x3135,
0.001398890000000,,0x0529,
0.001406090000000,,0x1AB2,
0.001413300000000,,0x2FDF,
0.001420440000000,,0x78C3,
0.001427580000000,,0x782F,
0.001434700000000,,0x1D51,
0.001441900000000,,0x2C7B,
0.001449080000000,,0x1282,
0.001456260000000,,0x01D6,
0.001463420000000,,0x3537,
0.001470610000000,,0x4702,
0.001477750000000,,0x2A28,
0.001484940000000,,0x52B5,
0.001492170000000,,0x18B0,
0.001499330000000,,0x357E,
0.001506500000000,,0x0A90,
0.001513680000000,,0x27E7,
0.001520820000000,,0x12A2,
0.001528030000000,,0x016D,
0.001535190000000,,0x6AC0,
0.001542360000000,,0x37DC,
0.001549520000000,,0x1264,
0.001556690000000,,0x759C,
0.001563870000000,,0x7ECD,
0.001571040000000,,0x57E3,
0.001578200000000,,0x7C58,
0.001585330000000,,0x3014,
0.001592480000000,,0x4C84,
0.001599660000000,,0x7F27,
0.001606810000000,,0x046E,
0.001613970000000,,0x25BB,
0.001621160000000,,0x7E6F,
0.001628290000000,,0x00EA,
0.001635450000000,,0x1216,
0.001642630000000,,0x6517,
0.001649820000000,,0x7C03,
0.001656920000000,,0x6CC1,
0.001664080000000,,0x239D,
0.001671260000000,,0x1570,
0.001678440000000,,0x0AA2,
0.001685630000000,,0x361B,
0.001692800000000,,0x2F83,
0.001699950000000,,0x5BF3,
0.001707110000000,,0x459D,
0.001714290000000,,0x5CEB,
0.001721470000000,,0x18B9,
0.001728640000000,,0x799B,
0.001735800000000,,0x38B0,
0.001742960000000,,0x064C,
0.001750110000000,,0x7BE7,
0.001757260000000,,0x1080,
0.001764400000000,,0x1B77,
0.001771570000000,,0x4764,
0.001778730000000,,0x18CA,
0.001785910000000,,0x25DB,
0.001793100000000,,0x7FA3,
0.001800230000000,,0x60F2,
0.001807370000000,,0x0374,
0.001814520000000,,0x2DC3,
0.001821690000000,,0x1579,
0.001828890000000,,0x4647,
0.001836040000000,,0x043B,
0.001843200000000,,0x0E28,
0.001850350000000,,0x32B6,
0.001857550000000,,0x5470,
0.001864720000000,,0x2D5C,
0.001871920000000,,0x6801,
0.001879070000000,,0x7335,
0.001886250000000,,0x68F7,
0.001893400000000,,0x0722,
0.001900560000000,,0x4CF6,
0.001907740000000,,0x6FAC,
0.001914920000000,,0x06A0,
0.001922070000000,,0x1E99,
0.001929230000000,,0x21AA,
0.001936440000000,,0x258E,
0.001943620000000,,0x5430,
0.001950790000000,,0x2C2B,
0.001957980000000,,0x57EE,
0.001965140000000,,0x1289,
0.001972330000000,,0x186F,
0.001979480000000,,0x4971,
0.001986660000000,,0x000D,
0.001993780000000,,0x2A97,
0.002001000000000,,0x6B30,
0.002008160000000,,0x317E,
0.002015310000000,,0x1DE7,
0.002022460000000,,0x591B,
0.002029640000000,,0x096C,
0.002036820000000,,0x08E4,
0.002043970000000,,0x0FF9,
0.002051090000000,,0x7864,
0.002058230000000,,0x41D9,
0.002065400000000,,0x2C99,
0.002072600000000,,0x00BA,
0.002079760000000,,0x133C,
0.002086910000000,,0x3503,
0.002094080000000,,0x65D0,
0.002101240000000,,0x007F,
0.002108340000000,,0x7E5A,
0.002115490000000,,0x2AB5,
0.002122730000000,,0x3ED7,
0.002129900000000,,0x20EF,
0.002137060000000,,0x0B9D,
0.002144240000000,,0x08AD,
0.002151430000000,,0x062D,
0.002158610000000,,0x36E0,
0.002165770000000,,0x3545,
0.002172980000000,,0x5789,
0.002180150000000,,0x28E6,
0.002187330000000,,0x6997,
0.002194530000000,,0x4775,
0.002201700000000,,0x101A,
0.002208860000000,,0x4CB6,
0.002216060000000,,0x6EDB,
0.002223260000000,,0x394F,
0.002230440000000,,0x7F25,
0.002237590000000,,0x5132,
0.002244770000000,,0x6BDD,
0.002251970000000,,0x18CB,
0.002259140000000,,0x6910,
0.002266300000000,,0x3A7E,
0.002273450000000,,0x3D6E,
0.002280630000000,,0x2422,
0.002287800000000,,0x35E4,
0.002294980000000,,0x5D51,
0.002302190000000,,0x0E58,
0.002309350000000,,0x3327,
0.002316520000000,,0x5B93,
0.002323700000000,,0x4451,
0.002330870000000,,0x3CF3,
0.002338030000000,,0x09DB,
0.002345200000000,,0x314F,
0.002352370000000,,0x51CA,
0.002359550000000,,0x2CCA,
0.002366740000000,,0x5C41,
0.002373910000000,,0x0BD8,
0.002381070000000,,0x2363,
0.002388230000000,,0x250F,
0.002395410000000,,0x1A15,
0.002402600000000,,0x1629,
0.002409800000000,,0x490B,
0.002416970000000,,0x54EE,
0.002424150000000,,0x1CEF,
0.002431300000000,,0x18AE,
0.002438480000000,,0x4265,
0.002445670000000,,0x46AB,
0.002452860000000,,0x6145,
0.002460030000000,,0x3F02,
0.002467160000000,,0x0C4F,
0.002474300000000,,0x4724,
0.002481460000000,,0x19BD,
0.002488630000000,,0x1A34,
0.002495810000000,,0x1E1F,
0.002502940000000,,0x106A,
0.002510120000000,,0x4D27,
0.002517310000000,,0x6138,
0.002524440000000,,0x5042,
0.002531620000000,,0x2BD7,
0.002538810000000,,0x2BDC,
0.002545990000000,,0x3265,
0.002553190000000,,0x4E23,
0.002560330000000,,0x092C,
0.002567510000000,,0x0993,
0.002574680000000,,0x3016,
0.002581840000000,,0x19D8,
0.002589000000000,,0x3141,
0.002596160000000,,0x62CA,
0.002603340000000,,0x4C41,
0.002610510000000,,0x5607,
0.002617670000000,,0x5893,
0.002624840000000,,0x4A37,
0.002632010000000,,0x3C32,
0.002639170000000,,0x02CF,
0.002646320000000,,0x77E9,
0.002653470000000,,0x1A18,
0.002660630000000,,0x78F8,
0.002667760000000,,0x6170,
0.002674910000000,,0x511B,
0.002682110000000,,0x63C5,
0.002689250000000,,0x3657,
0.002696450000000,,0x0CEE,
0.002703610000000,,0x09BA,
0.002710790000000,,0x7C48,
0.002717940000000,,0x740F,
0.002725090000000,,0x6034,
0.002732230000000,,0x33C3,
0.002739370000000,,0x7A85,
0.002746540000000,,0x41CD,
0.002753700000000,,0x4AB6,
0.002760910000000,,0x3651,
0.002768100000000,,0x7B86,
0.002775250000000,,0x5D87,
0.002782420000000,,0x3EB2,
0.002789600000000,,0x0B9A,
0.002796780000000,,0x7748,
0.002803950000000,,0x5486,
0.002811150000000,,0x1D0D,
0.002818320000000,,0x0F4B,
0.002825500000000,,0x2F30,
0.002832650000000,,0x406C,
0.002839810000000,,0x01F5,
0.002846950000000,,0x2C1B,
0.002854130000000,,0x134E,
0.002861310000000,,0x61CE,
0.002868470000000,,0x2455,
0.002875680000000,,0x0FD6,
0.002882840000000,,0x4352,
0.002890040000000,,0x7833,
0.002897180000000,,0x3F16,
0.002904340000000,,0x2E26,
0.002911510000000,,0x3284,
0.002918690000000,,0x458C,
0.002925860000000,,0x107D,
0.002933000000000,,0x329F,
0.002940190000000,,0x5C68,
0.002947350000000,,0x03C0,
0.002954460000000,,0x0DFF,
0.002961590000000,,0x40F1,
0.002968710000000,,0x29D1,
0.002975910000000,,0x570F,
0.002983070000000,,0x1926,
0.002990250000000,,0x013E,
0.002997380000000,,0x727D,
0.003004560000000,,0x6C73,
0.003011720000000,,0x308F,
0.003018870000000,,0x578E,
0.003026030000000,,0x1345,
0.003033220000000,,0x7877,
0.003040360000000,,0x5813,
0.003047510000000,,0x48D9,
0.003054680000000,,0x43ED,
0.003061840000000,,0x41B6,
0.003069010000000,,0x16D8,
0.003076180000000,,0x06BF,
0.003083330000000,,0x610F,
0.003090460000000,,0x6B07,
0.003097610000000,,0x0A3B,
0.003104790000000,,0x3C0B,
0.003111940000000,,0x4ECC,
0.003119110000000,,0x75C5,
0.003126300000000,,0x3302,
0.003133450000000,,0x35D7,
0.003140650000000,,0x4420,
0.003147780000000,,0x35EF,
0.003154950000000,,0x00AE,
0.003162110000000,,0x3155,
0.003169320000000,,0x40A3,
0.003176470000000,,0x39E1,
0.003183620000000,,0x0A36,
0.003190800000000,,0x52DA,
0.003198030000000,,0x66B7,
0.003205220000000,,0x7030,
0.003212330000000,,0x4C28,
0.003219500000000,,0x1B2E,
0.003226680000000,,0x0AAB,
0.003233890000000,,0x7AFE,
0.003241020000000,,0x1DA3,
0.003248190000000,,0x7A58,
0.003255350000000,,0x2CD8,
0.003262520000000,,0x4D06,
0.003269700000000,,0x690E,
0.003276880000000,,0x0923,
0.003284050000000,,0x321E,
0.003291210000000,,0x560B,
0.003298400000000,,0x7A89,
0.003305580000000,,0x2791,
0.003312750000000,,0x645B,
0.003319920000000,,0x5AB3,
0.003327120000000,,0x4137,
0.003334270000000,,0x1CBB,
0.003341450000000,,0x7FF6,
0.003348560000000,,0x4B61,
0.003355760000000,,0x4FAD,
0.003362930000000,,0x7959,
0.003370100000000,,0x2A33,
0.003377290000000,,0x4B51,
0.003384490000000,,0x0B0D,
0.003391670000000,,0x0A1E,
0.003398830000000,,0x1609,
0.003405990000000,,0x0DF6,
0.003413160000000,,0x4852,
0.003420350000000,,0x58BA,
0.003427550000000,,0x422F,
0.003434710000000,,0x12AE,
0.003441920000000,,0x6731,
0.003449080000000,,0x442D,
0.003456260000000,,0x5B3E,
0.003463430000000,,0x28D5,
0.003470630000000,,0x34A0,
0.003477820000000,,0x3F89,
0.003484960000000,,0x1718,
0.003492120000000,,0x44BD,
0.003499310000000,,0x1DCB,
0.003506480000000,,0x7BBA,
0.003513640000000,,0x3B3D,
0.003520820000000,,0x2053,
0.003527990000000,,0x6FC9,
0.003535150000000,,0x6993,
0.003542320000000,,0x2107,
0.003549470000000,,0x490A,
0.003556650000000,,0x5C63,
0.003563810000000,,0x1A79,
0.003570990000000,,0x71B9,
0.003578140000000,,0x07FE,
0.003585250000000,,0x296E,
0.003592450000000,,0x6E8A,
0.003599650000000,,0x30E8,
0.003606800000000,,0x29A7,
0.003613980000000,,0x21F6,
0.003621150000000,,0x42F8,
0.003628300000000,,0x2AC9,
0.003635510000000,,0x591A,
0.003642700000000,,0x01E1,
0.003649820000000,,0x0E72,
0.003656980000000,,0x66EE,
0.003664160000000,,0x3DFF,
0.003671290000000,,0x2E1C,
0.003678450000000,,0x2356,
0.003685640000000,,0x0F50,
0.003692790000000,,0x36D4,
0.003699990000000,,0x53D1,
0.003707180000000,,0x3E95,
0.003714380000000,,0x3082,
0.003721530000000,,0x395F,
0.003728700000000,,0x3B3E,
0.003735860000000,,0x7D82,
0.003743020000000,,0x2739,
0.003750180000000,,0x6620,
0.003757320000000,,0x0D66,
0.003764490000000,,0x0EA7,
0.003771660000000,,0x0BD5,
0.003778850000000,,0x4DB2,
0.003786040000000,,0x0D74,
0.003793210000000,,0x1FE0,
0.003800320000000,,0x6903,
0.003807480000000,,0x67F2,
0.003814620000000,,0x1A65,
0.003821810000000,,0x53FE,
0.003828950000000,,0x05A3,
0.003836120000000,,0x0968,
0.003843300000000,,0x2AD0,
0.003850490000000,,0x15A2,
0.003857690000000,,0x5C3A,
0.003864860000000,,0x57B6,
0.003872060000000,,0x138D,
0.003879230000000,,0x3F86,
0.003886360000000,,0x2C95,
0.003893570000000,,0x22A0,
0.003900750000000,,0x7E9A,
0.003907930000000,,0x6D6A,
0.003915150000000,,0x3DAC,
0.003922330000000,,0x36A1,
0.003929510000000,,0x78F9,
0.003936640000000,,0x2DBB,
0.003943840000000,,0x14C6,
0.003951020000000,,0x3E59,
0.003958190000000,,0x1101,
0.003965330000000,,0x14C9,
0.003972540000000,,0x4192,
0.003979690000000,,0x3457,
0.003986890000000,,0x4313,
0.003994030000000,,0x358F,
0.004001210000000,,0x4524,
0.004008390000000,,0x1206,
0.004015540000000,,0x654A,
0.004022760000000,,0x13F8,
0.004029890000000,,0x14AE,
0.004037080000000,,0x3FBB,
0.004044230000000,,0x06E4,
0.004051390000000,,0x799C,
0.004058540000000,,0x4755,
0.004065750000000,,0x54E7,
0.004072930000000,,0x500A,
0.004080080000000,,0x2A8E,
0.004087270000000,,0x63CE,
0.004094430000000,,0x2FEE,
0.004101580000000,,0x70A8,
0.004108750000000,,0x4EB5,
0.004115960000000,,0x7CF7,
0.004123100000000,,0x4D8A,
0.004130270000000,,0x49FA,
0.004137440000000,,0x1B5A,
0.004144640000000,,0x290E,
0.004151820000000,,0x6F46,
0.004158990000000,,0x50F0,
0.004166140000000,,0x38C5,
0.004173310000000,,0x6922,
0.004180490000000,,0x2B82,
0.004187660000000,,0x004F,
0.004194790000000,,0x7EBC,
0.004201920000000,,0x1AB9,
0.004209110000000,,0x3666,
0.004216300000000,,0x0485,
0.004223460000000,,0x3F20,
0.004230590000000,,0x1DEE,
0.004237750000000,,0x15FE,
0.004244900000000,,0x3B4C,
0.004252070000000,,0x294F,
0.004259270000000,,0x66BC,
0.004266430000000,,0x6989,
0.004273620000000,,0x306E,
0.004280770000000,,0x5C21,
0.004287940000000,,0x0A14,
0.004295120000000,,0x437B,
0.004302300000000,,0x346D,
0.004309490000000,,0x52C1,
0.004316670000000,,0x7F53,
0.004323830000000,,0x638D,
0.004330970000000,,0x7348,
0.004338140000000,,0x07B7,
0.004345280000000,,0x20BA,
0.004352460000000,,0x200E,
0.004359590000000,,0x4474,
0.004366770000000,,0x52B7,
0.004373980000000,,0x09AA,
0.004381180000000,,0x3853,
0.004388350000000,,0x58BF,
0.004395510000000,,0x2CD0,
0.004402690000000,,0x4D28,
0.004409880000000,,0x1EF3,
0.004417030000000,,0x7514,
0.004424210000000,,0x7C0D,
0.004431350000000,,0x5FC1,
0.004438480000000,,0x4316,
0.004445640000000,,0x1F36,
0.004452790000000,,0x59E9,
0.004459990000000,,0x5F4F,
0.004467140000000,,0x36BE,
0.004474330000000,,0x4329,
0.004481520000000,,0x245D,
0.004488710000000,,0x0FF8,
0.004495820000000,,0x34AF,
0.004503010000000,,0x0404,
0.004510140000000,,0x7105,
0.004517300000000,,0x27EC,
0.004524470000000,,0x0B1B,
0.004531640000000,,0x7D2B,
0.004538810000000,,0x2DCF,
0.004545990000000,,0x3763,
0.004553170000000,,0x2BE1,
0.004560340000000,,0x5C52,
0.004567520000000,,0x5654,
0.004574740000000,,0x0468,
0.004581890000000,,0x52D3,
0.004589100000000,,0x2A52,
0.004596320000000,,0x4210,
0.004603480000000,,0x6D83,
0.004610650000000,,0x726B,
0.004617820000000,,0x1B46,
0.004625010000000,,0x0B49,
0.004632190000000,,0x6D1B,
0.004639370000000,,0x70F6,
0.004646510000000,,0x7C9F,
0.004653660000000,,0x4C68,
0.004660820000000,,0x5E1F,
0.004667970000000,,0x760F,
0.004675090000000,,0x2FC9,
0.004682270000000,,0x0FF6,
0.004689410000000,,0x43E9,
0.004696570000000,,0x27C4,
0.004703740000000,,0x4FC8,
0.004710890000000,,0x166A,
0.004718090000000,,0x15AD,
0.004725300000000,,0x23F1,
0.004732450000000,,0x72E0,
0.004739590000000,,0x4457,
0.004746780000000,,0x4B9B,
0.004753960000000,,0x5DE6,
0.004761120000000,,0x73B5,
0.004768320000000,,0x2E5F,
0.004775490000000,,0x3BB6,
0.004782680000000,,0x3B04,
0.004789830000000,,0x6C50,
0.004797000000000,,0x6DE5,
0.004804200000000,,0x4089,
0.004811340000000,,0x6C28,
0.004818500000000,,0x6C5A,
0.004825700000000,,0x3897,
0.004832870000000,,0x7912,
0.004840030000000,,0x76BB,
0.004847220000000,,0x4BB3,
0.004854400000000,,0x1935,
0.004861600000000,,0x18F4,
0.004868750000000,,0x163D,
0.004875910000000,,0x2F24,
0.004883100000000,,0x6205,
0.004890270000000,,0x7455,
0.004897460000000,,0x702A,
0.004904610000000,,0x1907,
0.004911760000000,,0x4D4E,
0.004918940000000,,0x6857,
0.004926140000000,,0x4131,
0.004933290000000,,0x2F95,
0.004940480000000,,0x6880,
0.004947620000000,,0x3D10,
0.004954770000000,,0x52F5,
0.004961990000000,,0x19C7,
0.004969140000000,,0x0A91,
0.004976330000000,,0x6B2C,
0.004983510000000,,0x577F,
0.004990680000000,,0x5CF1,
0.004997840000000,,0x4D96,
0.005005020000000,,0x2FFB,
0.005012170000000,,0x5A4C,
0.005019350000000,,0x3D83,
0.005026500000000,,0x49D1,
0.005033680000000,,0x0258,
0.005040830000000,,0x0ABF,
0.005048000000000,,0x5897,
0.005055180000000,,0x6803,
0.005062310000000,,0x2669,
0.005069500000000,,0x2691,
0.005076700000000,,0x6186,
0.005083830000000,,0x250C,
0.005091010000000,,0x47C4,
0.005098160000000,,0x5ED9,
0.005105350000000,,0x46B8,
0.005112510000000,,0x788F,
0.005119660000000,,0x5B42,
0.005126840000000,,0x4F18,
0.005134000000000,,0x15AE,
0.005141190000000,,0x3A66,
0.005148370000000,,0x795B,
0.005155570000000,,0x7F6F,
0.005162700000000,,0x0537,
0.005169880000000,,0x6DA9,
0.005177080000000,,0x63E4,
0.005184210000000,,0x3E61,
0.005191360000000,,0x558F,
0.005198540000000,,0x1073,
0.005205700000000,,0x019F,
0.005212840000000,,0x3CE3,
0.005219990000000,,0x0986,
0.005227150000000,,0x5EB4,
0.005234350000000,,0x29A5,
0.005241560000000,,0x30EC,
0.005248720000000,,0x4FD5,
0.005255910000000,,0x78E6,
0.005263050000000,,0x522D,
0.005270260000000,,0x5E6B,
0.005277440000000,,0x11EC,
0.005284600000000,,0x793A,
0.005291780000000,,0x762E,
0.005298950000000,,0x63B9,
0.005306130000000,,0x15DC,
0.005313310000000,,0x6EAB,
0.005320530000000,,0x38DE,
0.005327690000000,,0x70C6,
0.005334840000000,,0x383F,
0.005341970000000,,0x3F2F,
0.005349120000000,,0x6225,
0.005356290000000,,0x30A8,
0.005363460000000,,0x6C96,
0.005370670000000,,0x5D52,
0.005377890000000,,0x17CF,
0.005385040000000,,0x389C,
0.005392200000000,,0x60AB,
0.005399390000000,,0x0AFD,
0.005406560000000,,0x0CBC,
0.005413720000000,,0x198A,
0.005420890000000,,0x2171,
0.005428060000000,,0x3FF3,
0.005435190000000,,0x07BD,
0.005442340000000,,0x318E,
0.005449500000000,,0x5ADE,
0.005456710000000,,0x6A6C,
0.005463910000000,,0x1793,
0.005471080000000,,0x5FEA,
0.005478230000000,,0x1E52,
0.005485410000000,,0x7FCC,
0.005492540000000,,0x5AB3,
0.005499750000000,,0x0571,
0.005506930000000,,0x5FF0,
0.005514040000000,,0x4B7D,
0.005521240000000,,0x29AC,
0.005528440000000,,0x384F,
0.005535590000000,,0x3EBE,
0.005542750000000,,0x6DC6,
0.005549920000000,,0x59A5,
0.005557130000000,,0x3864,
0.005564290000000,,0x27BC,
0.005571450000000,,0x4E77,
0.005578620000000,,0x6E74,
0.005585780000000,,0x0097,
0.005592930000000,,0x3910,
0.005600090000000,,0x01C4,
0.005607220000000,,0x2470,
0.005614360000000,,0x25D4,
0.005621570000000,,0x0068,
0.005628690000000,,0x45A4,
0.005635880000000,,0x54AE,
0.005643100000000,,0x59DE,
0.005650280000000,,0x640A,
0.005657450000000,,0x1752,
0.005664640000000,,0x54FE,
0.005671810000000,,0x58F4,
0.005678980000000,,0x341E,
0.005686140000000,,0x0E81,
0.005693280000000,,0x3840,
0.005700420000000,,0x0533,
0.005707590000000,,0x0BDB,
0.005714770000000,,0x3AF4,
0.005721950000000,,0x2EB4,
0.005729140000000,,0x212D,
0.005736330000000,,0x5885,
0.005743510000000,,0x7944,
0.005750670000000,,0x44BF,
0.005757840000000,,0x0CD1,
0.005765010000000,,0x7697,
0.005772190000000,,0x6912,
0.005779370000000,,0x2B64,
0.005786570000000,,0x3043,
0.005793720000000,,0x760D,
0.005800870000000,,0x3ED3,
0.005808050000000,,0x02DB,
0.005815230000000,,0x11C6,
0.005822390000000,,0x2CF3,
0.005829560000000,,0x1042,
0.005836720000000,,0x09F4,
0.005843870000000,,0x0A79,
0.005851030000000,,0x6820,
0.005858170000000,,0x3F45,
0.005865340000000,,0x72DD,
0.005872520000000,,0x2A60,
0.005879700000000,,0x53EC,
0.005886870000000,,0x50A2,
0.005894070000000,,0x28F5,
0.005901260000000,,0x341B,
0.005908440000000,,0x607E,
0.005915550000000,,0x67C6,
0.005922710000000,,0x7CF1,
0.005929860000000,,0x3AE2,
0.005937030000000,,0x1DC7,
0.005944180000000,,0x59A0,
0.005951340000000,,0x569B,
0.005958560000000,,0x783A,
0.005965700000000,,0x37B5,
0.005972890000000,,0x5F4D,
0.005980070000000,,0x27A4,
0.005987250000000,,0x4E04,
0.005994410000000,,0x7672,
0.006001590000000,,0x04CF,
0.006008740000000,,0x6B25,
0.006015940000000,,0x1B9A,
0.006023120000000,,0x6ED1,
0.006030310000000,,0x6C3D,
0.006037470000000,,0x46BE,
0.006044630000000,,0x4BA1,
0.006051830000000,,0x4C34,
0.006058990000000,,0x3969,
0.006066180000000,,0x08F6,
0.006073340000000,,0x5AF8,
0.006080520000000,,0x59F9,
0.006087690000000,,0x5F12,
0.006094850000000,,0x5945,
0.006102060000000,,0x3B46,
0.006109240000000,,0x387B,
0.006116390000000,,0x1C6C,
0.006123550000000,,0x4791,
0.006130720000000,,0x754A,
0.006137930000000,,0x0A61,
0.006145090000000,,0x2C15,
0.006152290000000,,0x6408,
0.006159430000000,,0x420E,
0.006166580000000,,0x1A98,
0.006173750000000,,0x3E50,
0.006180900000000,,0x5DE4,
0.006188080000000,,0x26E9,
0.006195270000000,,0x6039,
0.006202400000000,,0x5D12,
0.006209580000000,,0x52FE,
0.006216750000000,,0x4438,
0.006223910000000,,0x359C,
0.006231080000000,,0x18A8,
0.006238260000000,,0x350D,
0.006245450000000,,0x1296,
0.006252660000000,,0x23BF,
0.006259810000000,,0x4097,
0.006266960000000,,0x1B33,
0.006274140000000,,0x2061,
0.006281290000000,,0x7E35,
0.006288440000000,,0x54B2,
0.006295650000000,,0x7B99,
0.006302820000000,,0x6657,
0.006310000000000,,0x3754,
0.006317200000000,,0x10A4,
0.006324370000000,,0x7DBE,
0.006331530000000,,0x4183,
0.006338670000000,,0x78C1,
0.006345800000000,,0x6935,
0.006353000000000,,0x107C,
0.006360130000000,,0x7E54,
0.006367310000000,,0x19B5,
0.006374500000000,,0x5E5C,
0.006381660000000,,0x2AA9,
0.006388900000000,,0x58D6,
0.006396080000000,,0x61F9,
0.006403230000000,,0x1F10,
0.006410360000000,,0x2E3A,
0.006417530000000,,0x5485,
0.006424750000000,,0x049A,
0.006431930000000,,0x04F0,
0.006439060000000,,0x1408,
0.006446210000000,,0x0EC0,
0.006453340000000,,0x31BA,
0.006460520000000,,0x3C4A,
0.006467690000000,,0x0370,
0.006474820000000,,0x0FF7,
0.006481950000000,,0x0F22,
0.006489100000000,,0x6219,
0.006496270000000,,0x1254,
0.006503480000000,,0x313C,
0.006510630000000,,0x0D8A,
0.006517800000000,,0x6BD9,
0.006524990000000,,0x3AFF,
0.006532150000000,,0x734B,
0.006539320000000,,0x1E20,
0.006546460000000,,0x2B01,
0.006553630000000,,0x1B36,
0.006560820000000,,0x0AD8,
0.006568000000000,,0x62F8,
0.006575150000000,,0x19FB,
0.006582300000000,,0x286D,
0.006589490000000,,0x3686,
0.006596680000000,,0x07A7,
0.006603820000000,,0x20E7,
0.006610970000000,,0x4FF5,
0.006618130000000,,0x3C1B,
0.006625280000000,,0x4E91,
0.006632460000000,,0x1A3E,
0.006639610000000,,0x4B6D,
0.006646830000000,,0x29F1,
0.006654010000000,,0x57B4,
0.006661190000000,,0x46D1,
0.006668380000000,,0x71E0,
0.006675490000000,,0x4A31,
0.006682680000000,,0x4B5A,
0.006689890000000,,0x56F2,
0.006697090000000,,0x3513,
0.006704280000000,,0x658D,
0.006711460000000,,0x6F84,
0.006718590000000,,0x0635,
0.006725760000000,,0x3693,
0.006732960000000,,0x2D43,
0.006740150000000,,0x53D1,
0.006747330000000,,0x7AD3,
0.006754500000000,,0x73C9,
0.006761660000000,,0x0DD4,
0.006768840000000,,0x59F3,
0.006776010000000,,0x0A60,
0.006783170000000,,0x60DE,
0.006790320000000,,0x21D5,
0.006797510000000,,0x1F92,
0.006804670000000,,0x3DCE,
0.006811830000000,,0x2677,
0.006819000000000,,0x15CC,
0.006826190000000,,0x6EF6,
0.006833370000000,,0x5725,
0.006840580000000,,0x08A9,
0.006847770000000,,0x2419,
0.006854940000000,,0x2CBB,
0.006862140000000,,0x111B,
0.006869320000000,,0x41E6,
0.006876450000000,,0x17F2,
0.006883610000000,,0x56AB,
0.006890840000000,,0x78DC,
0.006897980000000,,0x07B9,
0.006905130000000,,0x57FC,
0.006912270000000,,0x03CE,
0.006919400000000,,0x7AB9,
0.006926590000000,,0x6331,
0.006933740000000,,0x171C,
0.006940900000000,,0x6689,
0.006948090000000,,0x0790,
0.006955230000000,,0x5FE4,
0.006962380000000,,0x2D52,
0.006969600000000,,0x1F47,
0.006976740000000,,0x50F5,
0.006983920000000,,0x563A,
0.006991100000000,,0x36A4,
0.006998300000000,,0x5240,
0.007005470000000,,0x3176,
0.007012650000000,,0x598F,
0.007019820000000,,0x6DAD,
0.007027020000000,,0x41D0,
0.007034160000000,,0x243A,
0.007041330000000,,0x71D1,
0.007048500000000,,0x061C,
0.007055630000000,,0x3E8B,
0.007062800000000,,0x03DF,
0.007069930000000,,0x362F,
0.007077110000000,,0x4917,
0.007084290000000,,0x32EF,
0.007091460000000,,0x5DF9,
0.007098620000000,,0x0C23,
0.007105770000000,,0x64F2,
0.007112920000000,,0x1403,
0.007120070000000,,0x533F,
0.007127220000000,,0x0EB7,
0.007134400000000,,0x4FCE,
0.007141540000000,,0x6102,
0.007148690000000,,0x4190,
0.007155840000000,,0x610B,
0.007163010000000,,0x0D75,
0.007170210000000,,0x532B,
0.007177410000000,,0x2CDE,
0.007184590000000,,0x3A6E,
0.007191770000000,,0x3D33,
0.007198950000000,,0x4BD9,
0.007206120000000,,0x4D8B,
0.007213300000000,,0x4177,
0.007220450000000,,0x1DCC,
0.007227620000000,,0x4019,
0.007234760000000,,0x2ADD,
0.007241980000000,,0x3F35,
0.007249150000000,,0x370A,
0.007256330000000,,0x66C8,
0.007263510000000,,0x0E6A,
0.007270690000000,,0x669D,
0.007277870000000,,0x25F9,
0.007285050000000,,0x2A44,
0.007292250000000,,0x7163,
0.007299420000000,,0x150E,
0.007306600000000,,0x7C75,
0.007313770000000,,0x1A38,
0.007320930000000,,0x7843,
0.007328070000000,,0x3E87,
0.007335230000000,,0x21C5,
0.007342400000000,,0x5B89,
0.007349570000000,,0x117E,
0.007356730000000,,0x6A93,
0.007363950000000,,0x6B27,
0.007371130000000,,0x0A80,
0.007378280000000,,0x63FC,
0.007385410000000,,0x3E12,
0.007392560000000,,0x4D89,
0.007399750000000,,0x142B,
0.007406950000000,,0x53AA,
0.007414150000000,,0x26BD,
0.007421340000000,,0x4327,
0.007428500000000,,0x175D,
0.007435690000000,,0x6F73,
0.007442850000000,,0x3EE9,
0.007450030000000,,0x574F,
0.007457210000000,,0x1851,
0.007464380000000,,0x3ED1,
0.007471560000000,,0x13C1,
0.007478710000000,,0x1CEB,
0.007485890000000,,0x7EDC,
0.007493030000000,,0x1B75,
0.007500220000000,,0x567E,
0.007507390000000,,0x15E7,
0.007514560000000,,0x77F4,
0.007521690000000,,0x7494,
0.007528890000000,,0x3F78,
0.007536020000000,,0x1CEA,
0.007543190000000,,0x3217,
0.007550360000000,,0x5EA8,
0.007557550000000,,0x0BE2,
0.007564700000000,,0x32B1,
0.007571890000000,,0x6FD3,
0.007579050000000,,0x3CBC,
0.007586210000000,,0x7767,
0.007593380000000,,0x2BF6,
0.007600560000000,,0x67AC,
0.007607740000000,,0x284F,
0.007614900000000,,0x6361,
0.007622060000000,,0x1636,
0.007629240000000,,0x369D,
0.007636430000000,,0x1E43,
0.007643580000000,,0x335A,
0.007650790000000,,0x7095,
0.007657970000000,,0x2082,
0.007665130000000,,0x6480,
0.007672290000000,,0x40CE,
0.007679440000000,,0x12BA,
0.007686640000000,,0x011E,
0.007693770000000,,0x72C6,
0.007700950000000,,0x3384,
0.007708100000000,,0x4051,
0.007715270000000,,0x6FC2,
0.007722410000000,,0x346C,
0.007729590000000,,0x1E0A,
0.007736730000000,,0x3A8E,
0.007743910000000,,0x3E11,
0.007751060000000,,0x541E,
0.007758220000000,,0x1F90,
0.007765350000000,,0x6892,
0.007772550000000,,0x6811,
0.007779720000000,,0x7368,
0.007786880000000,,0x070C,
0.007794010000000,,0x7F4D,
0.007801170000000,,0x50D0,
0.007808330000000,,0x7C38,
0.007815460000000,,0x759E,
0.007822640000000,,0x6FD7,
0.007829810000000,,0x5ACE,
0.007837000000000,,0x2E77,
0.007844170000000,,0x3B23,
0.007851350000000,,0x130E,
0.007858510000000,,0x60B9,
0.007865680000000,,0x1BBA,
0.007872870000000,,0x6E6A,
0.007880070000000,,0x33CA,
0.007887240000000,,0x3660,
0.007894400000000,,0x73ED,
0.007901570000000,,0x6B1D,
0.007908750000000,,0x5F14,
0.007915910000000,,0x6A6B,
0.007923120000000,,0x2C30,
0.007930280000000,,0x4E0A,
0.007937460000000,,0x0134,
0.007944610000000,,0x270F,
0.007951750000000,,0x55E8,
0.007958930000000,,0x2A1C,
0.007966110000000,,0x7067,
0.007973260000000,,0x32E7,
0.007980440000000,,0x1991,
0.007987610000000,,0x3895,
0.007994800000000,,0x2C4E,
0.008001980000000,,0x38DD,
0.008009150000000,,0x2D17,
0.008016350000000,,0x70CF,
0.008023480000000,,0x309C,
0.008030640000000,,0x4E44,
0.008037820000000,,0x7705,
0.008044990000000,,0x3B20,
0.008052160000000,,0x0A99,
0.008059350000000,,0x6B02,
0.008066510000000,,0x2082,
0.008073660000000,,0x20C6,
0.008080810000000,,0x0385,
0.008087950000000,,0x2631,
0.008095120000000,,0x63D3,
0.008102280000000,,0x0524,
0.008109460000000,,0x7463,
0.008116630000000,,0x07A4,
0.008123780000000,,0x7D36,
0.008130960000000,,0x0705,
0.008138100000000,,0x33A8,
0.008145280000000,,0x62F0,
0.008152430000000,,0x5D93,
0.008159630000000,,0x1CDB,
0.008166800000000,,0x7E3A,
0.008173940000000,,0x2B79,
0.008181130000000,,0x5ECF,
0.008188290000000,,0x318D,
0.008195460000000,,0x4349,
0.008202640000000,,0x61D7,
0.008209790000000,,0x2CAB,
0.008217010000000,,0x1146,
0.008224180000000,,0x2E1D,
0.008231350000000,,0x6F9D,
0.008238500000000,,0x4A8D,
0.008245700000000,,0x6B48,
0.008252880000000,,0x7487,
0.008260050000000,,0x26B2,
0.008267260000000,,0x78AA,
0.008274450000000,,0x7140,
0.008281600000000,,0x0C22,
0.008288750000000,,0x2839,
0.008295930000000,,0x51DE,
0.008303090000000,,0x0EA3,
0.008310260000000,,0x29E1,
0.008317430000000,,0x57E9,
0.008324600000000,,0x292A,
0.008331830000000,,0x098F,
0.008338980000000,,0x5617,
0.008346150000000,,0x58CE,
0.008353310000000,,0x25CC,
0.008360490000000,,0x445D,
0.008367670000000,,0x1EE9,
0.008374850000000,,0x647D,
0.008382010000000,,0x6926,
0.008389190000000,,0x09B6,
0.008396360000000,,0x1A14,
0.008403540000000,,0x5AE2,
0.008410730000000,,0x0CD6,
0.008417910000000,,0x0972,
0.008425090000000,,0x3BB9,
0.008432260000000,,0x0089,
0.008439410000000,,0x0A4D,
0.008446610000000,,0x0EB4,
0.008453790000000,,0x5659,
0.008461000000000,,0x6AB9,
0.008468190000000,,0x7AA8,
0.008475370000000,,0x2FA7,
0.008482550000000,,0x3D3A,
0.008489730000000,,0x437A,
0.008496900000000,,0x3CE0,
0.008504030000000,,0x5457,
0.008511240000000,,0x1644,
0.008518420000000,,0x2616,
0.008525590000000,,0x1C8D,
0.008532760000000,,0x0878,
0.008539890000000,,0x2F50,
0.008547070000000,,0x05E6,
0.008554220000000,,0x22A6,
0.008561420000000,,0x09F2,
0.008568560000000,,0x3957,
0.008575760000000,,0x7F56,
0.008582910000000,,0x4934,
0.008590110000000,,0x6F85,
0.008597270000000,,0x4AFE,
0.008604430000000,,0x734E,
0.008611610000000,,0x70DF,
0.008618750000000,,0x7487,
0.008625900000000,,0x62F4,
0.008633060000000,,0x3BE1,
0.008640210000000,,0x45CB,
0.008647390000000,,0x6EEF,
0.008654540000000,,0x5FDB,
0.008661690000000,,0x1639,
0.008668870000000,,0x4956,
0.008676080000000,,0x3B15,
0.008683270000000,,0x6480,
0.008690410000000,,0x0488,
0.008697550000000,,0x51F1,
0.008704720000000,,0x3595,
0.008711940000000,,0x100B,
0.008719100000000,,0x4466,
0.008726250000000,,0x07B6,
0.008733400000000,,0x2837,
0.008740580000000,,0x2698,
0.008747760000000,,0x2D63,
0.008754950000000,,0x172C,
0.008762140000000,,0x666F,
0.008769310000000,,0x379C,
0.008776470000000,,0x5755,
0.008783710000000,,0x0938,
0.008790860000000,,0x2BFA,
0.008798040000000,,0x45B6,
0.008805240000000,,0x45E9,
0.008812420000000,,0x3B08,
0.008819580000000,,0x4E4A,
0.008826780000000,,0x0043,
0.008833910000000,,0x18E0,
0.008841040000000,,0x3454,
0.008848240000000,,0x5A84,
0.008855430000000,,0x3E34,
0.008862580000000,,0x7E1C,
0.008869710000000,,0x5CAA,
0.008876920000000,,0x5505,
0.008884130000000,,0x03A9,
0.008891310000000,,0x0490,
0.008898470000000,,0x5182,
0.008905650000000,,0x2D93,
0.008912840000000,,0x1453,
0.008920030000000,,0x1653,
0.008927230000000,,0x1DE8,
0.008934390000000,,0x6296,
0.008941590000000,,0x6F71,
0.008948760000000,,0x6BB5,
0.008955960000000,,0x1929,
0.008963160000000,,0x7EF5,
0.008970310000000,,0x572B,
0.008977510000000,,0x3BA9,
0.008984720000000,,0x4492,
0.008991900000000,,0x26FD,
0.008999070000000,,0x4250,
0.009006220000000,,0x28B2,
0.009013420000000,,0x0ECF,
0.009020570000000,,0x4E71,
0.009027730000000,,0x191C,
0.009034890000000,,0x54AA,
0.009042130000000,,0x7BEA,
0.009049300000000,,0x7E51,
0.009056470000000,,0x330C,
0.009063630000000,,0x4291,
0.009070820000000,,0x67E0,
0.009077940000000,,0x0B22,
0.009085110000000,,0x3128,
0.009092280000000,,0x2FE3,
0.009099430000000,,0x1E79,
0.009106580000000,,0x66CE,
0.009113750000000,,0x7902,
0.009120900000000,,0x32A0,
0.009128080000000,,0x6703,
0.009135220000000,,0x55D1,
0.009142420000000,,0x661F,
0.009149550000000,,0x724B,
0.009156720000000,,0x1BFD,
0.009163870000000,,0x54BE,
0.009171050000000,,0x1DC5,
0.009178220000000,,0x48BA,
0.009185400000000,,0x5BB6,
0.009192600000000,,0x2A15,
0.009199800000000,,0x3C82,
0.009206960000000,,0x00C7,
0.009214080000000,,0x383A,
0.009221240000000,,0x51D0,
0.009228420000000,,0x3DA3,
0.009235590000000,,0x496A,
0.009242790000000,,0x5DAF,
0.009249980000000,,0x7A61,
0.009257130000000,,0x60DB,
0.009264280000000,,0x4F2A,
0.009271460000000,,0x4014,
0.009278610000000,,0x440C,
0.009285760000000,,0x174E,
0.009292930000000,,0x32FF,
0.009300080000000,,0x19E2,
0.009307240000000,,0x2093,
0.009314400000000,,0x2816,
0.009321590000000,,0x6AE8,
0.009328780000000,,0x3749,
0.009335980000000,,0x3A6E,
0.009343160000000,,0x7975,
0.009350350000000,,0x0892,
0.009357530000000,,0x7900,
0.009364660000000,,0x23BA,
0.009371830000000,,0x6A2E,
0.009379030000000,,0x07FE,
0.009386130000000,,0x6D28,
0.009393330000000,,0x2DC1,
0.009400500000000,,0x0463,
0.009407650000000,,0x4B6A,
0.009414850000000,,0x5614,
0.009422050000000,,0x051F,
0.009429190000000,,0x6D3C,
0.009436350000000,,0x4BEE,
0.009443520000000,,0x3288,
0.009450700000000,,0x23D0,
0.009457850000000,,0x3E90,
0.009465000000000,,0x5E7D,
0.009472170000000,,0x66D9,
0.009479350000000,,0x42FC,
0.009486480000000,,0x4CBB,
0.009493680000000,,0x000A,
0.009500810000000,,0x1134,
0.009507990000000,,0x7AD0,
0.009515170000000,,0x2E18,
0.009522320000000,,0x4524,
0.009529510000000,,0x5640,
0.009536690000000,,0x2601,
0.009543830000000,,0x2773,
0.009551000000000,,0x7663,
0.009558160000000,,0x4859,
0.009565340000000,,0x4103,
0.009572470000000,,0x3E69,
0.009579650000000,,0x55A1,
0.009586850000000,,0x678E,
0.009593990000000,,0x7DA8,
0.009601160000000,,0x72F0,
0.009608320000000,,0x004C,
0.009615450000000,,0x672B,
0.009622640000000,,0x1102,
0.009629800000000,,0x0D5E,
0.009636970000000,,0x4A29,
0.009644180000000,,0x0F6F,
0.009651340000000,,0x0DBF,
0.009658490000000,,0x05C0,
0.009665620000000,,0x5575,
0.009672850000000,,0x0238,
0.009679990000000,,0x0B73,
0.009687170000000,,0x388F,
0.009694320000000,,0x7961,
0.009701470000000,,0x6EBD,
0.009708640000000,,0x4FEB,
0.009715790000000,,0x4B00,
0.009722930000000,,0x02AA,
0.009730120000000,,0x5C9C,
0.009737290000000,,0x66CD,
0.009744490000000,,0x24D3,
0.009751680000000,,0x7A50,
0.009758840000000,,0x68B0,
0.009766010000000,,0x79B0,
0.009773170000000,,0x21B2,
0.009780340000000,,0x25FD,
0.009787510000000,,0x4C36,
0.009794670000000,,0x2873,
0.009801840000000,,0x05DB,
0.009809020000000,,0x08D7,
0.009816190000000,,0x52CE,
0.009823380000000,,0x0098,
0.009830500000000,,0x46DB,
0.009837700000000,,0x2492,
0.009844900000000,,0x73AA,
0.009852090000000,,0x51C9,
0.009859280000000,,0x711B,
0.009866430000000,,0x14B1,
0.009873630000000,,0x046B,
0.009880800000000,,0x0F02,
0.009887930000000,,0x62A2,
0.009895130000000,,0x4DA3,
0.009902320000000,,0x41E2,
0.009909450000000,,0x35C6,
0.009916630000000,,0x4CF0,
0.009923780000000,,0x5C82,
0.009930950000000,,0x11D6,
0.009938120000000,,0x68E8,
0.009945300000000,,0x3CF2,
0.009952450000000,,0x4510,
0.009959620000000,,0x7492,
0.009966820000000,,0x0C56,
0.009973990000000,,0x0B9C,
0.009981150000000,,0x4466,
0.009988320000000,,0x43F0,
0.009995450000000,,0x6B7C,
0.010002630000000,,0x1213,
0.010009800000000,,0x4FAE,
0.010016950000000,,0x60CE,
0.010024110000000,,0x2188,
0.010031250000000,,0x7069,
0.010038420000000,,0x45A1,
0.010045590000000,,0x3A51,
0.010052790000000,,0x0658,
0.010059950000000,,0x1DC8,
0.010067110000000,,0x266B,
0.010074310000000,,0x73CD,
0.010081460000000,,0x2FE0,
0.010088590000000,,0x43A8,
0.010095760000000,,0x2E3E,
0.010102920000000,,0x76B1,
0.010110110000000,,0x1EC1,
0.010117260000000,,0x20AE,
0.010124450000000,,0x0267,
0.010131590000000,,0x31D4,
0.010138770000000,,0x0E86,
0.010145930000000,,0x03E3,
0.010153050000000,,0x14D3,
0.010160250000000,,0x14BD,
0.010167450000000,,0x6237,
0.010174600000000,,0x21EF,
0.010181750000000,,0x0E40,
0.010188890000000,,0x7712,
0.010196070000000,,0x00DE,
0.010203190000000,,0x7482,
0.010210370000000,,0x0C0B,
0.010217520000000,,0x6467,
0.010224670000000,,0x3C09,
0.010231830000000,,0x5FD6,
0.010238990000000,,0x78E8,
0.010246140000000,,0x612D,
0.010253340000000,,0x3EE0,
0.010260470000000,,0x1BAA,
0.010267670000000,,0x2A71,
0.010274860000000,,0x1F7A,
0.010282020000000,,0x7A84,
0.010289190000000,,0x0D06,
0.010296340000000,,0x0F6B,
0.010303520000000,,0x6BCD,
0.010310700000000,,0x5CD0,
0.010317860000000,,0x45A0,
0.010325030000000,,0x769A,
0.010332230000000,,0x4385,
0.010339400000000,,0x4054,
0.010346560000000,,0x013D,
0.010353700000000,,0x6BEA,
0.010360880000000,,0x67C8,
0.010368040000000,,0x0BB7,
0.010375210000000,,0x1922,
0.010382390000000,,0x230A,
0.010389570000000,,0x6826,
0.010396740000000,,0x482D,
0.010403930000000,,0x26E0,
0.010411090000000,,0x689A,
0.010418290000000,,0x2C79,
0.010425460000000,,0x47DE,
0.010432590000000,,0x4FB0,
0.010439750000000,,0x5393,
0.010446940000000,,0x2EF8,
0.010454110000000,,0x0240,
0.010461230000000,,0x0ACC,
0.010468410000000,,0x4091,
0.010475570000000,,0x6C5B,
0.010482750000000,,0x745C,
0.010489910000000,,0x3CCF,
0.010497060000000,,0x2B27,
0.010504250000000,,0x6CE5,
0.010511430000000,,0x0112,
0.010518590000000,,0x50DC,
0.010525770000000,,0x5E22,
0.010532940000000,,0x1838,
0.010540060000000,,0x37BE,
0.010547220000000,,0x02B2,
0.010554400000000,,0x18A9,
0.010561580000000,,0x3D80,
0.010568720000000,,0x1400,
0.010575850000000,,0x4AA8,
0.010583060000000,,0x050C,
0.010590210000000,,0x74F6,
0.010597390000000,,0x2FAE,
0.010604570000000,,0x71DF,
0.010611720000000,,0x715A,
0.010618890000000,,0x1D4B,
0.010626080000000,,0x3D12,
0.010633260000000,,0x07A9,
0.010640430000000,,0x57A1,
0.010647600000000,,0x6C35,
0.010654780000000,,0x02D6,
0.010661970000000,,0x7F17,
0.010669110000000,,0x0488,
0.010676270000000,,0x15B7,
0.010683460000000,,0x76DE,
0.010690620000000,,0x2480,
0.010697770000000,,0x26AB,
0.010704980000000,,0x7054,
0.010712130000000,,0x6FD0,
0.010719280000000,,0x616D,
0.010726470000000,,0x3F97,
0.010733630000000,,0x2445,
0.010740820000000,,0x4BCD,
0.010748000000000,,0x6FE2,
0.010755140000000,,0x34D7,
0.010762340000000,,0x41FD,
0.010769460000000,,0x4A50,
0.010776640000000,,0x065D,
0.010783820000000,,0x7337,
0.010790980000000,,0x79ED,
0.010798130000000,,0x0A0F,
0.010805280000000,,0x1ED9,
0.010812460000000,,0x649B,
0.010819630000000,,0x592A,
0.010826840000000,,0x0107,
0.010833960000000,,0x3E7E,
0.010841100000000,,0x6E5F,
0.010848270000000,,0x1995,
0.010855460000000,,0x1AA1,
0.010862660000000,,0x3615,
0.010869850000000,,0x1C83,
0.010877010000000,,0x3B78,
0.010884170000000,,0x4FDB,
0.010891340000000,,0x0FA0,
0.010898480000000,,0x71ED,
0.010905650000000,,0x60A6,
0.010912810000000,,0x206A,
0.010919990000000,,0x678C,
0.010927140000000,,0x28F4,
0.010934310000000,,0x3C96,
0.010941490000000,,0x66E8,
0.010948660000000,,0x0ED1,
0.010955830000000,,0x396A,
0.010963040000000,,0x5527,
0.010970250000000,,0x1208,
0.010977400000000,,0x564A,
0.010984630000000,,0x7373,
0.010991800000000,,0x1EE8,
0.010998960000000,,0x6CF0,
0.011006120000000,,0x6FB0,
0.011013270000000,,0x60A1,
0.011020440000000,,0x5F8F,
0.011027570000000,,0x3527,
0.011034770000000,,0x0319,
0.011041920000000,,0x0698,
0.011049080000000,,0x1E51,
0.011056250000000,,0x665B,
0.011063430000000,,0x5108,
0.011070590000000,,0x3E49,
0.011077750000000,,0x115C,
0.011084930000000,,0x7B32,
0.011092110000000,,0x39FD,
0.011099250000000,,0x2871,
0.011106420000000,,0x5087,
0.011113580000000,,0x46B1,
0.011120750000000,,0x346A,
0.011127950000000,,0x6962,
0.011135140000000,,0x6EB3,
0.011142340000000,,0x7CEB,
0.011149490000000,,0x2B8B,
0.011156690000000,,0x08EC,
0.011163840000000,,0x0FD7,
0.011170990000000,,0x0F99,
0.011178140000000,,0x3DEE,
0.011185310000000,,0x628A,
0.011192500000000,,0x0970,
0.011199650000000,,0x2AA3,
0.011206860000000,,0x0DA4,
0.011214040000000,,0x5862,
0.011221220000000,,0x0583,
0.011228360000000,,0x09D3,
0.011235530000000,,0x7527,
0.011242710000000,,0x657C,
0.011249860000000,,0x6476,
0.011257050000000,,0x709F,
0.011264190000000,,0x75F0,
0.011271320000000,,0x5D1B,
0.011278520000000,,0x5A5D,
0.011285720000000,,0x3553,
0.011292940000000,,0x20BC,
0.011300100000000,,0x1320,
0.011307240000000,,0x5302,
0.011314420000000,,0x24C6,
0.011321590000000,,0x14F2,
0.011328760000000,,0x58CD,
0.011335950000000,,0x781D,
0.011343080000000,,0x0CAD,
0.011350270000000,,0x115A,
0.011357470000000,,0x481C,
0.011364620000000,,0x2E8B,
0.011371820000000,,0x5E00,
0.011378930000000,,0x4DDF,
0.011386100000000,,0x262F,
0.011393270000000,,0x14C8,
0.011400450000000,,0x491F,
0.011407620000000,,0x32C1,
0.011414800000000,,0x2A04,
0.011421980000000,,0x7014,
0.011429130000000,,0x2AE1,
0.011436310000000,,0x1DC9,
0.011443490000000,,0x6AA0,
0.011450670000000,,0x3610,
0.011457820000000,,0x727C,
0.011464980000000,,0x64FE,
0.011472130000000,,0x3619,
0.011479290000000,,0x3E99,
0.011486470000000,,0x56DE,
0.011493660000000,,0x17B2,
0.011500830000000,,0x57DC,
0.011508010000000,,0x4733,
0.011515180000000,,0x6605,
0.011522320000000,,0x2764,
0.011529510000000,,0x4D9D,
0.011536700000000,,0x3642,
0.011543890000000,,0x260A,
0.011551060000000,,0x7A8C,
0.011558240000000,,0x496E,
0.011565430000000,,0x3BDD,
0.011572600000000,,0x2371,
0.011579780000000,,0x700E,
0.011586890000000,,0x3B88,
0.011594050000000,,0x08E2,
0.011601200000000,,0x3CD7,
0.011608370000000,,0x6F12,
0.011615530000000,,0x37A8,
0.011622710000000,,0x31C1,
0.011629850000000,,0x6024,
0.011636990000000,,0x339E,
0.011644150000000,,0x157E,
0.011651320000000,,0x39A2,
0.011658500000000,,0x5690,
0.011665700000000,,0x25C5,
0.011672880000000,,0x08B8,
0.011680040000000,,0x2CC9,
0.011687230000000,,0x45D6,
0.011694420000000,,0x0063,
0.011701540000000,,0x185B,
0.011708710000000,,0x6BA3,
0.011715890000000,,0x2A5A,
0.011723120000000,,0x0678,
0.011730250000000,,0x5935,
0.011737460000000,,0x3AD7,
0.011744660000000,,0x3798,
0.011751830000000,,0x7561,
0.011759020000000,,0x1363,
0.011766200000000,,0x0FA4,
0.011773350000000,,0x53D9,
0.011780540000000,,0x7AFD,
0.011787700000000,,0x0434,
0.011794860000000,,0x71E3,
0.011802000000000,,0x17E0,
0.011809140000000,,0x03AA,
0.011816300000000,,0x5941,
0.011823490000000,,0x1972,
0.011830680000000,,0x2220,
0.011837820000000,,0x3832,
0.011844980000000,,0x51FE,
0.011852130000000,,0x4A5E,
0.011859320000000,,0x355D,
0.011866540000000,,0x13BC,
0.011873700000000,,0x73AB,
0.011880880000000,,0x5944,
0.011888070000000,,0x778D,
0.011895240000000,,0x7DA6,
0.011902400000000,,0x41F0,
0.011909530000000,,0x60C7,
0.011916670000000,,0x6D6D,
0.011923870000000,,0x4249,
0.011931050000000,,0x640A,
0.011938200000000,,0x5314,
0.011945400000000,,0x17B5,
0.011952590000000,,0x6C7F,
0.011959720000000,,0x56D3,
0.011966920000000,,0x7963,
0.011974070000000,,0x7FA7,
0.011981200000000,,0x42C6,
0.011988350000000,,0x192F,
0.011995530000000,,0x099D,
0.012002700000000,,0x0316,
0.012009860000000,,0x7953,
0.012017050000000,,0x3B07,
0.012024200000000,,0x3181,
0.012031350000000,,0x2515,
0.012038570000000,,0x4F3A,
0.012045730000000,,0x4049,
0.012052900000000,,0x2BF7,
0.012060070000000,,0x6F21,
0.012067220000000,,0x2ED9,
0.012074430000000,,0x0A76,
0.012081610000000,,0x53AD,
0.012088820000000,,0x5958,
0.012096010000000,,0x118C,
0.012103160000000,,0x3CB0,
0.012110310000000,,0x557D,
0.012117520000000,,0x4650,
0.012124670000000,,0x3FC5,
0.012131820000000,,0x7033,
0.012138950000000,,0x55BF,
0.012146130000000,,0x1095,
0.012153320000000,,0x3193,
0.012160490000000,,0x3452,
0.012167690000000,,0x2DEC,
0.012174870000000,,0x6A09,
0.012182060000000,,0x3CE6,
0.012189230000000,,0x233F,
0.012196380000000,,0x4279,
0.012203530000000,,0x64EC,
0.012210690000000,,0x6318,
0.012217850000000,,0x1F04,
0.012224970000000,,0x4815,
0.012232160000000,,0x626E,
0.012239320000000,,0x6C20,
0.012246470000000,,0x6C74,
0.012253650000000,,0x4F6A,
0.012260850000000,,0x0525,
0.012268030000000,,0x38A8,
0.012275210000000,,0x4279,
0.012282380000000,,0x20AA,
0.012289580000000,,0x2053,
0.012296750000000,,0x2B8F,
0.012303920000000,,0x2AD8,
0.012311120000000,,0x158C,
0.012318290000000,,0x2BC7,
0.012325460000000,,0x2B81,
0.012332640000000,,0x5D9E,
0.012339800000000,,0x364C,
0.012346980000000,,0x150A,
0.012354170000000,,0x1A07,
0.012361320000000,,0x4328,
0.012368480000000,,0x6896,
0.012375670000000,,0x4A25,
0.012382880000000,,0x6933,
0.012390060000000,,0x2352,
0.012397260000000,,0x6922,
0.012404460000000,,0x6FC4,
0.012411600000000,,0x4304,
0.012418760000000,,0x4A37,
0.012425940000000,,0x7874,
0.012433080000000,,0x4184,
0.012440230000000,,0x4362,
0.012447410000000,,0x78D5,
0.012454600000000,,0x0F1A,
0.012461760000000,,0x2697,
0.012468940000000,,0x16EE,
0.012476140000000,,0x7131,
0.012483300000000,,0x053E,
0.012490460000000,,0x214C,
0.012497630000000,,0x51C4,
0.012504800000000,,0x1FCA,
0.012511950000000,,0x3CCA,
0.012519130000000,,0x019E,
0.012526260000000,,0x7028,
0.012533410000000,,0x4C5B,
0.012540600000000,,0x0328,
0.012547760000000,,0x0EF3,
0.012554910000000,,0x28CB,
0.012562110000000,,0x07FD,
0.012569240000000,,0x30F9,
0.012576390000000,,0x6531,
0.012583560000000,,0x0BD0,
0.012590720000000,,0x670B,
0.012597900000000,,0x11B9,
0.012605070000000,,0x52A9,
0.012612290000000,,0x3AF7,
0.012619470000000,,0x3723,
0.012626640000000,,0x2A96,
0.012633870000000,,0x63BD,
0.012641030000000,,0x37E8,
0.012648200000000,,0x74F0,
0.012655350000000,,0x1C80,
0.012662480000000,,0x66A9,
0.012669690000000,,0x072B,
0.012676870000000,,0x0013,
0.012684000000000,,0x5D8C,
0.012691160000000,,0x270B,
0.012698330000000,,0x77DC,
0.012705460000000,,0x3047,
0.012712610000000,,0x5439,
0.012719780000000,,0x2488,
0.012726970000000,,0x2685,
0.012734150000000,,0x07A9,
0.012741330000000,,0x13E7,
0.012748490000000,,0x2F7E,
0.012755650000000,,0x365D,
0.012762840000000,,0x1DDA,
0.012770030000000,,0x736A,
0.012777220000000,,0x5250,
0.012784420000000,,0x312B,
0.012791610000000,,0x3674,
0.012798800000000,,0x15C2,
0.012805970000000,,0x5DF6,
0.012813150000000,,0x37AE,
0.012820320000000,,0x02EF,
0.012827470000000,,0x7752,
0.012834650000000,,0x45EF,
0.012841820000000,,0x0826,
0.012848980000000,,0x593C,
0.012856150000000,,0x7632,
0.012863330000000,,0x05B8,
0.012870480000000,,0x54CA,
0.012877700000000,,0x7A26,
0.012884880000000,,0x1E49,
0.012892050000000,,0x226E,
0.012899220000000,,0x0A45,
0.012906410000000,,0x0E9A,
0.012913590000000,,0x21A4,
0.012920770000000,,0x168E,
0.012927940000000,,0x34BB,
0.012935140000000,,0x266D,
0.012942340000000,,0x04A5,
0.012949540000000,,0x7BDD,
0.012956690000000,,0x0152,
0.012963870000000,,0x51AB,
0.012971090000000,,0x61CD,
0.012978240000000,,0x7984,
0.012985370000000,,0x4726,
0.012992540000000,,0x4CE1,
0.012999710000000,,0x5452,
0.013006920000000,,0x78BB,
0.013014090000000,,0x7990,
0.013021220000000,,0x654F,
0.013028410000000,,0x3941,
0.013035590000000,,0x0863,
0.013042740000000,,0x72F2,
0.013049890000000,,0x5510,
0.013057080000000,,0x294D,
0.013064300000000,,0x77A6,
0.013071450000000,,0x64A4,
0.013078650000000,,0x6241,
0.013085820000000,,0x5716,
0.013093000000000,,0x559E,
0.013100200000000,,0x5CE5,
0.013107400000000,,0x2BB9,
0.013114590000000,,0x1910,
0.013121750000000,,0x32F6,
0.013128920000000,,0x5507,
0.013136120000000,,0x12B3,
0.013143320000000,,0x09BD,
0.013150490000000,,0x03AD,
0.013157670000000,,0x26A4,
0.013164880000000,,0x4BD9,
0.013172070000000,,0x09CD,
0.013179250000000,,0x023C,
0.013186390000000,,0x2947,
0.013193570000000,,0x22D4,
0.013200770000000,,0x5D3F,
0.013207950000000,,0x78D2,
0.013215100000000,,0x70FF,
0.013222220000000,,0x743C,
0.013229360000000,,0x3D03,
0.013236500000000,,0x4B3F,
0.013243660000000,,0x7D87,
0.013250790000000,,0x49C6,
0.013257940000000,,0x39A6,
0.013265110000000,,0x74A4,
0.013272310000000,,0x3F9E,
0.013279440000000,,0x2CE6,
0.013286620000000,,0x3AA6,
0.013293810000000,,0x7AC2,
0.013300990000000,,0x3F5F,
0.013308140000000,,0x27F2,
0.013315300000000,,0x7C00,
0.013322400000000,,0x3110,
0.013329550000000,,0x6B6D,
0.013336770000000,,0x1AC3,
0.013343950000000,,0x26C3,
0.013351120000000,,0x71B6,
0.013358290000000,,0x7835,
0.013365450000000,,0x0C38,
0.013372580000000,,0x3950,
0.013379760000000,,0x44F5,
0.013386950000000,,0x58D4,
0.013394140000000,,0x70E3,
0.013401290000000,,0x123D,
0.013408460000000,,0x7C15,
0.013415610000000,,0x5FB2,
0.013422780000000,,0x5B10,
0.013429950000000,,0x1B6E,
0.013437130000000,,0x0BDC,
0.013444280000000,,0x4511,
0.013451470000000,,0x7C1F,
0.013458570000000,,0x0AC0,
0.013465730000000,,0x628B,
0.013472920000000,,0x01FD,
0.013480050000000,,0x2C35,
0.013487250000000,,0x64B3,
0.013494430000000,,0x1DF9,
0.013501590000000,,0x6A46,
0.013508770000000,,0x061C,
0.013515900000000,,0x7ACD,
0.013523090000000,,0x4094,
0.013530250000000,,0x02A4,
0.013537430000000,,0x2BDA,
0.013544630000000,,0x450D,
0.013551820000000,,0x1A1E,
0.013558970000000,,0x4BD6,
0.013566170000000,,0x7606,
0.013573320000000,,0x276A,
0.013580520000000,,0x7E9D,
0.013587690000000,,0x56C9,
0.013594890000000,,0x2C4C,
0.013602070000000,,0x29C7,
0.013609240000000,,0x203A,
0.013616400000000,,0x22E0,
0.013623550000000,,0x3BAB,
0.013630740000000,,0x11CE,
0.013637910000000,,0x689B,
0.013645100000000,,0x24F4,
0.013652290000000,,0x4148,
0.013659460000000,,0x26A7,
0.013666660000000,,0x1608,
0.013673820000000,,0x413D,
0.013680990000000,,0x0D8F,
0.013688140000000,,0x0526,
0.013695320000000,,0x6579,
0.013702510000000,,0x0A89,
0.013709710000000,,0x2F19,
0.013716880000000,,0x0C32,
0.013724040000000,,0x6C22,
0.013731220000000,,0x7D6E,
0.013738390000000,,0x4247,
0.013745560000000,,0x570A,
0.013752740000000,,0x339F,
0.013759900000000,,0x1DF3,
0.013767060000000,,0x3F34,
0.013774220000000,,0x3F87,
0.013781340000000,,0x605E,
0.013788480000000,,0x677D,
0.013795650000000,,0x2306,
0.013802810000000,,0x4A3C,
0.013809980000000,,0x258B,
0.013817170000000,,0x7E89,
0.013824320000000,,0x30E6,
0.013831480000000,,0x1AA7,
0.013838670000000,,0x417D,
0.013845830000000,,0x48BE,
0.013852990000000,,0x7982,
0.013860140000000,,0x304E,
0.013867290000000,,0x18DC,
0.013874450000000,,0x16A8,
0.013881640000000,,0x072E,
0.013888790000000,,0x6EEC,
0.013895980000000,,0x020A,
0.013903120000000,,0x5EC9,
0.013910320000000,,0x46E5,
0.013917490000000,,0x1774,
0.013924680000000,,0x232D,
0.013931870000000,,0x533E,
0.013939030000000,,0x063A,
0.013946180000000,,0x4958,
0.013953380000000,,0x0815,
0.013960550000000,,0x040B,
0.013967700000000,,0x0ECE,
0.013974870000000,,0x02BA,
0.013982040000000,,0x5CC1,
0.013989210000000,,0x0936,
0.013996390000000,,0x5CBC,
0.014003570000000,,0x6676,
0.014010750000000,,0x7B24,
0.014017930000000,,0x0A8E,
0.014025100000000,,0x50FC,
0.014032250000000,,0x5E99,
0.014039450000000,,0x47CF,
0.014046580000000,,0x4760,
0.014053710000000,,0x3AFE,
0.014060870000000,,0x3F80,
0.014067980000000,,0x5BFD,
0.014075150000000,,0x769D,
0.014082330000000,,0x3C60,
0.014089460000000,,0x12FF,
0.014096610000000,,0x2AD0,
0.014103810000000,,0x51E4,
0.014110990000000,,0x1F71,
0.014118140000000,,0x633D,
0.014125300000000,,0x7140,
0.014132430000000,,0x4864,
0.014139600000000,,0x6B72,
0.014146800000000,,0x6555,
0.014154030000000,,0x6C6E,
0.014161190000000,,0x5E03,
0.014168340000000,,0x100E,
0.014175480000000,,0x6EDF,
0.014182660000000,,0x1B7B,
0.014189840000000,,0x657E,
0.014197000000000,,0x756C,
0.014204200000000,,0x7DB2,
0.014211390000000,,0x27DF,
0.014218540000000,,0x562C,
0.014225720000000,,0x05D7,
0.014232880000000,,0x2ACD,
0.014240100000000,,0x3F68,
0.014247260000000,,0x58F1,
0.014254430000000,,0x1EA7,
0.014261600000000,,0x124C,
0.014268780000000,,0x7509,
0.014275970000000,,0x56C7,
0.014283150000000,,0x5B0A,
0.014290340000000,,0x0A07,
0.014297490000000,,0x1EF7,
0.014304640000000,,0x1366,
0.014311830000000,,0x251D,
0.014319020000000,,0x4F14,
0.014326180000000,,0x37B4,
0.014333370000000,,0x57C0,
0.014340510000000,,0x2132,
0.014347690000000,,0x2713,
0.014354860000000,,0x33E9,
0.014362040000000,,0x6B0A,
0.014369220000000,,0x64EA,
0.014376410000000,,0x1470,
0.014383570000000,,0x4B39,
0.014390760000000,,0x0AEF,
0.014397940000000,,0x1DFB,
0.014405100000000,,0x7B5C,
0.014412250000000,,0x0B31,
0.014419420000000,,0x28E2,
0.014426600000000,,0x4BA3,
0.014433790000000,,0x5D2E,
0.014440970000000,,0x3444,
0.014448150000000,,0x5AD9,
0.014455360000000,,0x51CF,
0.014462520000000,,0x0673,
0.014469690000000,,0x408C,
0.014476820000000,,0x4691,
0.014484020000000,,0x7097,
0.014491170000000,,0x75DE,
0.014498330000000,,0x2AE6,
0.014505530000000,,0x266A,
0.014512730000000,,0x7B40,
0.014519880000000,,0x2976,
0.014527080000000,,0x2ABF,
0.014534270000000,,0x6BA5,
0.014541460000000,,0x1974,
0.014548640000000,,0x110E,
0.014555800000000,,0x2F44,
0.014562980000000,,0x278F,
0.014570120000000,,0x5706,
0.014577280000000,,0x55C3,
0.014584470000000,,0x331E,
0.014591620000000,,0x53D6,
0.014598830000000,,0x0536,
0.014606000000000,,0x2162,
0.014613180000000,,0x2639,
0.014620340000000,,0x63FD,
0.014627470000000,,0x72D9,
0.014634650000000,,0x0854,
0.014641830000000,,0x49B7,
0.014649020000000,,0x74FC,
0.014656160000000,,0x3E9A,
0.014663330000000,,0x0B0F,
0.014670480000000,,0x5F42,
0.014677640000000,,0x586F,
0.014684810000000,,0x6B52,
0.014692010000000,,0x21A8,
0.014699180000000,,0x70D2,
0.014706360000000,,0x1A56,
0.014713550000000,,0x4A8F,
0.014720740000000,,0x3E14,
0.014727900000000,,0x3AE1,
0.014735080000000,,0x4016,
0.014742210000000,,0x1150,
0.014749380000000,,0x5928,
0.014756580000000,,0x545B,
0.014763790000000,,0x7018,
0.014770900000000,,0x08FB,
0.014778050000000,,0x706F,
0.014785180000000,,0x32C9,
0.014792380000000,,0x6E6C,
0.014799550000000,,0x44A2,
0.014806740000000,,0x625D,
0.014813940000000,,0x3117,
0.014821110000000,,0x1488,
0.014828290000000,,0x4868,
0.014835470000000,,0x0D2E,
0.014842640000000,,0x4BB8,
0.014849820000000,,0x008C,
0.014856940000000,,0x64B2,
0.014864140000000,,0x5132,
0.014871340000000,,0x2F9B,
0.014878510000000,,0x5B80,
0.014885650000000,,0x5D9B,
0.014892840000000,,0x58B3,
0.014900020000000,,0x4A8C,
0.014907200000000,,0x63C5,
0.014914370000000,,0x7211,
0.014921520000000,,0x4FA5,
0.014928700000000,,0x3D31,
0.014935870000000,,0x1E85,
0.014943040000000,,0x03ED,
0.014950200000000,,0x27D3,
0.014957360000000,,0x7436,
0.014964530000000,,0x6871,
0.014971700000000,,0x72A4,
0.014978870000000,,0x6714,
0.014986050000000,,0x6E2F,
0.014993220000000,,0x1804,
0.015000350000000,,0x1542,
0.015007550000000,,0x5F18,
0.015014690000000,,0x4871,
0.015021870000000,,0x4196,
0.015029030000000,,0x1663,
0.015036190000000,,0x5948,
0.015043380000000,,0x11D1,
0.015050540000000,,0x534B,
0.015057750000000,,0x2D12,
0.015064940000000,,0x5A76,
0.015072150000000,,0x2C51,
0.015079330000000,,0x030D,
0.015086490000000,,0x24F1,
0.015093660000000,,0x6BF1,
0.015100820000000,,0x3A6A,
0.015108020000000,,0x5B41,
0.015115210000000,,0x12C9,
0.015122400000000,,0x5D5E,
0.015129590000000,,0x35D5,
0.015136810000000,,0x553A,
0.015144010000000,,0x38C2,
0.015151160000000,,0x5281,
0.015158350000000,,0x3A62,
0.015165530000000,,0x1F29,
0.015172700000000,,0x267F,
0.015179860000000,,0x15E2,
0.015187030000000,,0x190B,
0.015194200000000,,0x2B12,
0.015201400000000,,0x46BA,
0.015208600000000,,0x2DD3,
0.015215800000000,,0x1524,
0.015222990000000,,0x29BC,
0.015230170000000,,0x7C54,
0.015237340000000,,0x120E,
0.015244500000000,,0x2122,
0.015251670000000,,0x274E,
0.015258850000000,,0x5C12,
0.015266020000000,,0x1365,
0.015273220000000,,0x78CC,
0.015280350000000,,0x07E4,
0.015287480000000,,0x3807,
0.015294610000000,,0x7BA1,
0.015301760000000,,0x669F,
0.015308920000000,,0x70A5,
0.015316090000000,,0x6422,
0.015323250000000,,0x17C7,
0.015330390000000,,0x7CF4,
0.015337520000000,,0x541D,
0.015344720000000,,0x4241,
0.015351870000000,,0x2062,
0.015359030000000,,0x67A2,
0.015366200000000,,0x5F09,
0.015373370000000,,0x40A1,
0.015380520000000,,0x28FB,
0.015387700000000,,0x071B,
0.015394850000000,,0x00F5,
0.015402000000000,,0x6D80,
0.015409140000000,,0x2FBA,
0.015416310000000,,0x53B6,
0.015423520000000,,0x04FA,
0.015430680000000,,0x417A,
0.015437850000000,,0x375B,
0.015445050000000,,0x2B29,
0.015452260000000,,0x1BA3,
0.015459440000000,,0x22D2,
0.015466650000000,,0x6E11,
0.015473810000000,,0x6FA4,
0.015480970000000,,0x068E,
0.015488120000000,,0x6964,
0.015495320000000,,0x5D9D,
0.015502520000000,,0x6B9D,
0.015509700000000,,0x5DFA,
0.015516860000000,,0x15B4,
0.015524060000000,,0x6F49,
0.015531250000000,,0x2F3B,
0.015538420000000,,0x1D93,
0.015545600000000,,0x3EF8,
0.015552740000000,,0x5F9F,
0.015559890000000,,0x713C,
0.015567020000000,,0x2FA9,
0.015574210000000,,0x4A7C,
0.015581370000000,,0x60BA,
0.015588550000000,,0x022D,
0.015595720000000,,0x65D1,
0.015602890000000,,0x08F2,
0.015610050000000,,0x78CC,
0.015617200000000,,0x43A2,
0.015624370000000,,0x7B4C,
0.015631550000000,,0x4F2A,
0.015638740000000,,0x0452,
0.015645910000000,,0x0747,
0.015653060000000,,0x23C5,
0.015660230000000,,0x5032,
0.015667390000000,,0x6E00,
0.015674520000000,,0x6774,
0.015681700000000,,0x6FE3,
0.015688850000000,,0x781C,
0.015695960000000,,0x0420,
0.015703090000000,,0x17CC,
0.015710240000000,,0x210B,
0.015717400000000,,0x6B10,
0.015724560000000,,0x31C5,
0.015731730000000,,0x4210,
0.015738860000000,,0x29C5,
0.015746050000000,,0x3120,
0.015753210000000,,0x2FCD,
0.015760380000000,,0x6984,
0.015767530000000,,0x1AF9,
0.015774710000000,,0x3711,
0.015781880000000,,0x3B6A,
0.015789090000000,,0x5E9C,
0.015796260000000,,0x6D76,
0.015803470000000,,0x5BAD,
0.015810690000000,,0x77B7,
0.015817840000000,,0x6C74,
0.015825000000000,,0x0B2C,
0.015832180000000,,0x466E,
0.015839350000000,,0x0C23,
0.015846500000000,,0x20B4,
0.015853680000000,,0x5748,
0.015860880000000,,0x67B4,
0.015868050000000,,0x6C7A,
0.015875230000000,,0x382C,
0.015882380000000,,0x26E5,
0.015889570000000,,0x0665,
0.015896750000000,,0x73FF,
0.015903860000000,,0x3E1C,
0.015911000000000,,0x7E89,
0.015918160000000,,0x74A0,
0.015925320000000,,0x59EC,
0.015932500000000,,0x75F6,
0.015939670000000,,0x2A73,
0.015946860000000,,0x0E60,
0.015954000000000,,0x77A9,
0.015961190000000,,0x5F29,
0.015968370000000,,0x045C,
0.015975520000000,,0x3447,
0.015982690000000,,0x434E,
0.015989850000000,,0x5A74,
0.015997050000000,,0x3D4B,
0.016004240000000,,0x0E20,
0.016011380000000,,0x76DE,
0.016018560000000,,0x60C6,
0.016025710000000,,0x65E0,
0.016032870000000,,0x44DF,
0.016040040000000,,0x0D1D,
0.016047210000000,,0x168F,
0.016054390000000,,0x7870,
0.016061500000000,,0x63B0,
0.016068660000000,,0x5939,
0.016075850000000,,0x5C8B,
0.016083030000000,,0x1975,
0.016090220000000,,0x1983,
0.016097370000000,,0x29D2,
0.016104570000000,,0x4E98,
0.016111750000000,,0x129D,
0.016118940000000,,0x3A06,
0.016126100000000,,0x3CD1,
0.016133270000000,,0x5C3C,
0.016140420000000,,0x20DE,
0.016147570000000,,0x47B0,
0.016154720000000,,0x7D7C,
0.016161870000000,,0x5300,
0.016169020000000,,0x35DC,
0.016176200000000,,0x19DF,
0.016183350000000,,0x0AE2,
0.016190530000000,,0x732A,
0.016197720000000,,0x5327,
0.016204910000000,,0x0EC4,
0.016212070000000,,0x57C8,
0.016219240000000,,0x655A,
0.016226460000000,,0x13A5,
0.016233650000000,,0x7B55,
0.016240850000000,,0x47D4,
0.016248010000000,,0x1AC2,
0.016255190000000,,0x6A08,
0.016262370000000,,0x346B,
0.016269560000000,,0x25A9,
0.016276780000000,,0x2B6E,
0.016283990000000,,0x2177,
0.016291160000000,,0x0CDD,
0.016298330000000,,0x10CB,
0.016305510000000,,0x47FF,
0.016312610000000,,0x4786,
0.016319750000000,,0x0AF2,
0.016326930000000,,0x3731,
0.016334100000000,,0x7F97,
0.016341230000000,,0x4220,
0.016348360000000,,0x2923,
0.016355550000000,,0x012C,
0.016362710000000,,0x277C,
0.016369870000000,,0x4DEE,
0.016377050000000,,0x2E44,
0.016384220000000,,0x2252,
0.016391410000000,,0x28B9,
0.016398600000000,,0x5330,
0.016405750000000,,0x717C,
0.016412910000000,,0x6A98,
0.016420100000000,,0x36D8,
0.016427280000000,,0x358D,
0.016434470000000,,0x1078,
0.016441610000000,,0x5C60,
0.016448760000000,,0x03EE,
0.016455890000000,,0x7A02,
0.016463050000000,,0x3CC6,
0.016470200000000,,0x67C2,
0.016477360000000,,0x5EC5,
0.016484550000000,,0x20B9,
0.016491720000000,,0x3999,
0.016498900000000,,0x4FCF,
0.016506030000000,,0x698F,
0.016513180000000,,0x4706,
0.016520320000000,,0x081C,
0.016527450000000,,0x48EE,
0.016534620000000,,0x3CEE,
0.016541790000000,,0x2311,
0.016548950000000,,0x3584,
0.016556130000000,,0x18DB,
0.016563300000000,,0x2D0B,
0.016570500000000,,0x16CE,
0.016577690000000,,0x718A,
0.016584860000000,,0x5AC9,
0.016592070000000,,0x5192,
0.016599260000000,,0x6988,
0.016606430000000,,0x38E3,
0.016613580000000,,0x5AB7,
0.016620780000000,,0x6303,
0.016627900000000,,0x06E0,
0.016635040000000,,0x5BA8,
0.016642240000000,,0x5D0E,
0.016649420000000,,0x70B9,
0.016656590000000,,0x4665,
0.016663760000000,,0x159A,
0.016670970000000,,0x5CF2,
0.016678140000000,,0x1047,
0.016685290000000,,0x670B,
0.016692440000000,,0x55FF,
0.016699590000000,,0x11E2,
0.016706750000000,,0x0E7C,
0.016713890000000,,0x55EE,
0.016721090000000,,0x5D74,
0.016728290000000,,0x245A,
0.016735480000000,,0x701D,
0.016742630000000,,0x6604,
0.016749760000000,,0x2FE9,
0.016756920000000,,0x4B0B,
0.016764100000000,,0x5F55,
0.016771300000000,,0x6391,
0.016778450000000,,0x1549,
0.016785660000000,,0x46A1,
0.016792840000000,,0x3437,
0.016800020000000,,0x0699,
0.016807200000000,,0x16DC,
0.016814380000000,,0x60CD,
0.016821550000000,,0x381F,
0.016828680000000,,0x7BD2,
0.016835840000000,,0x7E99,
0.016843010000000,,0x74FD,
0.016850160000000,,0x3617,
0.016857340000000,,0x0D99,
0.016864520000000,,0x3655,
0.016871740000000,,0x1DF4,
0.016878900000000,,0x0497,
0.016886060000000,,0x2E67,
0.016893240000000,,0x7F38,
0.016900350000000,,0x3FBE,
0.016907490000000,,0x2C5D,
0.016914680000000,,0x6551,
0.016921870000000,,0x0A1C,
0.016929030000000,,0x0713,
0.016936170000000,,0x00DB,
0.016943330000000,,0x1A7D,
0.016950510000000,,0x538D,
0.016957680000000,,0x1DA5,
0.016964880000000,,0x0D30,
0.016972040000000,,0x78E5,
0.016979210000000,,0x0FFC,
0.016986320000000,,0x169B,
0.016993510000000,,0x1E5F,
0.017000670000000,,0x555B,
0.017007890000000,,0x3183,
0.017015040000000,,0x340F,
0.017022200000000,,0x4217,
0.017029350000000,,0x1266,
0.017036530000000,,0x20C0,
0.017043660000000,,0x30AB,
0.017050850000000,,0x3147,
0.017058020000000,,0x15A2,
0.017065230000000,,0x187C,
0.017072350000000,,0x14FD,
0.017079520000000,,0x2706,
0.017086690000000,,0x5D4B,
0.017093900000000,,0x5B77,
0.017101080000000,,0x6547,
0.017108250000000,,0x396F,
0.017115430000000,,0x7F9E,
0.017122540000000,,0x0EC5,
0.017129710000000,,0x1B03,
0.017136860000000,,0x2087,
0.017144020000000,,0x4E39,
0.017151170000000,,0x5C03,
0.017158300000000,,0x5FF3,
0.017165430000000,,0x52EA,
0.017172640000000,,0x2217,
0.017179800000000,,0x0377,
0.017186960000000,,0x7012,
0.017194090000000,,0x5D89,
0.017201280000000,,0x49F4,
0.017208440000000,,0x285A,
0.017215630000000,,0x4985,
0.017222820000000,,0x6500,
0.017229960000000,,0x03BB,
0.017237110000000,,0x5191,
0.017244280000000,,0x701F,
0.017251400000000,,0x3358,
0.017258580000000,,0x618F,
0.017265730000000,,0x2DAF,
0.017272930000000,,0x36AF,
0.017280130000000,,0x4BF9,
0.017287280000000,,0x4D30,
0.017294450000000,,0x1E80,
0.017301580000000,,0x6D12,
0.017308780000000,,0x7855,
0.017315970000000,,0x0DF4,
0.017323120000000,,0x5948,
0.017330320000000,,0x5597,
0.017337540000000,,0x1000,
0.017344650000000,,0x1999,
0.017351810000000,,0x38BB,
0.017358990000000,,0x5BB3,
0.017366170000000,,0x44EA,
0.017373350000000,,0x6304,
0.017380500000000,,0x7905,
0.017387670000000,,0x0903,
0.017394820000000,,0x76E3,
0.017401980000000,,0x4AB7,
0.017409180000000,,0x3EDC,
0.017416340000000,,0x7D10,
0.017423490000000,,0x3490,
0.017430660000000,,0x7B29,
0.017437860000000,,0x645F,
0.017445010000000,,0x7887,
0.017452140000000,,0x5B6C,
0.017459320000000,,0x38E5,
0.017466490000000,,0x6999,
0.017473670000000,,0x7475,
0.017480850000000,,0x7091,
0.017488000000000,,0x46F0,
0.017495130000000,,0x3D90,
0.017502290000000,,0x501B,
0.017509460000000,,0x6618,
0.017516600000000,,0x49E8,
0.017523770000000,,0x0A1D,
0.017530940000000,,0x4BD8,
0.017538100000000,,0x4506,
0.017545270000000,,0x47E1,
0.017552410000000,,0x74DB,
0.017559590000000,,0x0582,
0.017566750000000,,0x4518,
0.017573920000000,,0x30FA,
0.017581070000000,,0x38E0,
0.017588200000000,,0x4320,
0.017595360000000,,0x68B8,
0.017602530000000,,0x3DD8,
0.017609690000000,,0x1504,
0.017616860000000,,0x6D41,
0.017624060000000,,0x60E8,
0.017631190000000,,0x565B,
0.017638410000000,,0x7BA3,
0.017645560000000,,0x7785,
0.017652710000000,,0x7D88,
0.017659850000000,,0x360D,
0.017667020000000,,0x1CF0,
0.017674170000000,,0x237E,
0.017681320000000,,0x4B83,
0.017688490000000,,0x5D95,
0.017695690000000,,0x6BB3,
0.017702870000000,,0x2A07,
0.017710040000000,,0x6983,
0.017717190000000,,0x215A,
0.017724400000000,,0x26F1,
0.017731560000000,,0x240C,
0.017738720000000,,0x065F,
0.017745870000000,,0x622D,
0.017753040000000,,0x74C0,
0.017760170000000,,0x5820,
0.017767330000000,,0x15EE,
0.017774510000000,,0x3B11,
0.017781680000000,,0x46B4,
0.017788860000000,,0x1ED3,
0.017796030000000,,0x75AF,
0.017803200000000,,0x23FA,
0.017810360000000,,0x2F1F,
0.017817510000000,,0x7B5A,
0.017824690000000,,0x381F,
0.017831810000000,,0x3F94,
0.017838970000000,,0x3DD2,
0.017846140000000,,0x4076,
0.017853300000000,,0x54DA,
0.017860520000000,,0x7A7B,
0.017867690000000,,0x71B2,
0.017874850000000,,0x5A01,
0.017882020000000,,0x1663,
0.017889190000000,,0x1D0E,
0.017896350000000,,0x529A,
0.017903570000000,,0x67C0,
0.017910700000000,,0x4FDF,
0.017917850000000,,0x2D94,
0.017925050000000,,0x6BB6,
0.017932250000000,,0x44F8,
0.017939400000000,,0x3605,
0.017946580000000,,0x5898,
0.017953740000000,,0x17C8,
0.017960890000000,,0x033F,
0.017968010000000,,0x714B,
0.017975180000000,,0x159B,
0.017982380000000,,0x547F,
0.017989530000000,,0x16D1,
0.017996730000000,,0x0E1C,
0.018003870000000,,0x1064,
0.018011030000000,,0x7E27,
0.018018170000000,,0x01B3,
0.018025330000000,,0x5A04,
0.018032490000000,,0x789C,
0.018039640000000,,0x4288,
0.018046810000000,,0x2B58,
0.018054010000000,,0x56F9,
0.018061190000000,,0x68EC,
0.018068360000000,,0x5A80,
0.018075540000000,,0x1C00,
0.018082640000000,,0x6447,
0.018089810000000,,0x78F4,
0.018096950000000,,0x436A,
0.018104150000000,,0x3CBD,
0.018111320000000,,0x3BAC,
0.018118510000000,,0x6E2B,
0.018125700000000,,0x3A30,
0.018132860000000,,0x0F19,
0.018140010000000,,0x7B46,
0.018147170000000,,0x5E1E,
0.018154320000000,,0x7E82,
0.018161480000000,,0x295F,
0.018168670000000,,0x66E1,
0.018175820000000,,0x0672,
0.018182980000000,,0x4801,
0.018190130000000,,0x4007,
0.018197240000000,,0x1980,
0.018204370000000,,0x3045,
0.018211540000000,,0x4523,
0.018218710000000,,0x29A5,
0.018225930000000,,0x74AA,
0.018233130000000,,0x0C9E,
0.018240290000000,,0x4C6D,
0.018247480000000,,0x30E0,
0.018254620000000,,0x2989,
0.018261800000000,,0x560B,
0.018268980000000,,0x3ECF,
0.018276140000000,,0x64DA,
0.018283310000000,,0x50D0,
0.018290490000000,,0x387E,
0.018297620000000,,0x36D5,
0.018304830000000,,0x5B5C,
0.018312020000000,,0x3803,
0.018319150000000,,0x5995,
0.018326350000000,,0x7CC4,
0.018333480000000,,0x54FB,
0.018340680000000,,0x724D,
0.018347850000000,,0x28D3,
0.018355040000000,,0x43C8,
0.018362180000000,,0x6BB4,
0.018369380000000,,0x55E2,
0.018376570000000,,0x3B28,
0.018383750000000,,0x0AB7,
0.018390950000000,,0x1CFF,
0.018398070000000,,0x5CB5,
0.018405280000000,,0x6ED5,
0.018412480000000,,0x0A4F,
0.018419650000000,,0x1FAE,
0.018426810000000,,0x5B74,
0.018434010000000,,0x3896,
0.018441190000000,,0x719F,
0.018448340000000,,0x702D,
0.018455490000000,,0x22A4,
0.018462690000000,,0x5CAE,
0.018469890000000,,0x7731,
0.018477070000000,,0x19F2,
0.018484230000000,,0x20CE,
0.018491380000000,,0x47ED,
0.018498550000000,,0x1287,
0.018505720000000,,0x2B6F,
0.018512920000000,,0x29FA,
0.018520100000000,,0x0A4B,
0.018527290000000,,0x79DC,
0.018534440000000,,0x0264,
0.018541590000000,,0x2843,
0.018548760000000,,0x053D,
0.018555940000000,,0x38DB,
0.018563110000000,,0x5A7F,
0.018570270000000,,0x24F2,
0.018577450000000,,0x7266,
0.018584630000000,,0x31D1,
0.018591800000000,,0x6079,
0.018598930000000,,0x5C65,
0.018606110000000,,0x6D11,
0.018613280000000,,0x2584,
0.018620470000000,,0x4504,
0.018627640000000,,0x56FB,
0.018634830000000,,0x79F6,
0.018641970000000,,0x57AD,
0.018649190000000,,0x4E2F,
0.018656340000000,,0x6F70,
0.018663480000000,,0x277E,
0.018670640000000,,0x5CF4,
0.018677820000000,,0x2369,
0.018685010000000,,0x707D,
0.018692140000000,,0x238E,
0.018699300000000,,0x0CBA,
0.018706470000000,,0x6EE2,
0.018713650000000,,0x754C,
0.018720840000000,,0x7D09,
0.018728010000000,,0x7828,
0.018735140000000,,0x26F2,
0.018742320000000,,0x3D9B,
0.018749500000000,,0x0DE4,
0.018756650000000,,0x5915,
0.018763860000000,,0x3A6C,
0.018771040000000,,0x686F,
0.018778220000000,,0x05BF,
0.018785370000000,,0x2B2F,
0.018792570000000,,0x288D,
0.018799760000000,,0x35A4,
0.018806970000000,,0x1860,
0.018814090000000,,0x72FC,
0.018821240000000,,0x6610,
0.018828400000000,,0x49C6,
0.018835570000000,,0x7DE0,
0.018842710000000,,0x37EF,
0.018849860000000,,0x0B15,
0.018857050000000,,0x4E2B,
0.018864220000000,,0x4D44,
0.018871400000000,,0x3D25,
0.018878590000000,,0x78AA,
0.018885770000000,,0x3506,
0.018892950000000,,0x4F69,
0.018900140000000,,0x1CB2,
0.018907330000000,,0x3313,
0.018914490000000,,0x7941,
0.018921650000000,,0x6E06,
0.018928790000000,,0x101C,
0.018935910000000,,0x3BDE,
0.018943070000000,,0x3AE6,
0.018950250000000,,0x7BB5,
0.018957440000000,,0x00B0,
0.018964580000000,,0x464E,
0.018971760000000,,0x0C98,
0.018978910000000,,0x7F43,
0.018986050000000,,0x2796,
0.018993240000000,,0x5FF8,
0.019000360000000,,0x4B53,
0.019007570000000,,0x5E51,
0.019014750000000,,0x4478,
0.019021880000000,,0x70AD,
0.019029070000000,,0x640C,
0.019036210000000,,0x603A,
0.019043370000000,,0x00C3,
0.019050490000000,,0x1A0E,
0.019057650000000,,0x4B8B,
0.019064840000000,,0x19FD,
0.019071990000000,,0x5F05,
0.019079150000000,,0x62BB,
0.019086320000000,,0x455D,
0.019093520000000,,0x5F72,
0.019100680000000,,0x5889,
0.019107880000000,,0x5B5E,
0.019115060000000,,0x2919,
0.019122250000000,,0x54B8,
0.019129430000000,,0x2EEB,
0.019136620000000,,0x5FCC,
0.019143760000000,,0x2DC7,
0.019150930000000,,0x374D,
0.019158130000000,,0x5C1C,
0.019165270000000,,0x2065,
0.019172440000000,,0x1847,
0.019179590000000,,0x0DA2,
0.019186780000000,,0x6B4C,
0.019193980000000,,0x12F5,
0.019201170000000,,0x7FA2,
0.019208300000000,,0x687F,
0.019215450000000,,0x05E2,
0.019222610000000,,0x44D4,
0.019229800000000,,0x50E2,
0.019236970000000,,0x2982,
0.019244140000000,,0x0BF4,
0.019251300000000,,0x01C2,
0.019258420000000,,0x175E,
0.019265600000000,,0x32A2,
0.019272790000000,,0x7619,
0.019279960000000,,0x58FC,
0.019287090000000,,0x3430,
0.019294240000000,,0x797C,
0.019301390000000,,0x4477,
0.019308560000000,,0x4B20,
0.019315730000000,,0x0211,
0.019322870000000,,0x036B,
0.019330040000000,,0x1613,
0.019337220000000,,0x1C9F,
0.019344370000000,,0x5D79,
0.019351550000000,,0x0ECD,
0.019358720000000,,0x1B2D,
0.019365920000000,,0x577A,
0.019373100000000,,0x320E,
0.019380260000000,,0x1210,
0.019387410000000,,0x5639,
0.019394590000000,,0x6B75,
0.019401790000000,,0x1AB0,
0.019408980000000,,0x3EC5,
0.019416150000000,,0x75EE,
0.019423310000000,,0x2A00,
0.019430460000000,,0x1666,
0.019437640000000,,0x73F1,
0.019444790000000,,0x0D1C,
0.019451950000000,,0x1E02,
0.019459090000000,,0x7EE6,
0.019466230000000,,0x0AA7,
0.019473420000000,,0x1CA2,
0.019480600000000,,0x334E,
0.019487780000000,,0x16BA,
0.019494970000000,,0x1669,
0.019502170000000,,0x0C3A,
0.019509320000000,,0x284A,
0.019516520000000,,0x49D8,
0.019523700000000,,0x0AFB,
0.019530870000000,,0x7BD4,
0.019538030000000,,0x4DB7,
0.019545230000000,,0x638B,
0.019552380000000,,0x4066,
0.019559510000000,,0x10C1,
0.019566650000000,,0x56CB,
0.019573860000000,,0x3D56,
0.019581060000000,,0x24EA,
0.019588250000000,,0x7215,
0.019595440000000,,0x29D7,
0.019602640000000,,0x6421,
0.019609790000000,,0x0E50,
0.019616950000000,,0x774F,
0.019624120000000,,0x6F25,
0.019631290000000,,0x0CED,
0.019638470000000,,0x102D,
0.019645650000000,,0x77F3,
0.019652790000000,,0x4F37,
0.019659940000000,,0x2E98,
0.019667130000000,,0x038C,
0.019674250000000,,0x6AD4,
0.019681470000000,,0x51F3,
0.019688640000000,,0x248F,
0.019695820000000,,0x1D26,
0.019703000000000,,0x1649,
0.019710190000000,,0x0C81,
0.019717340000000,,0x77BD,
0.019724500000000,,0x3906,
0.019731660000000,,0x32B7,
0.019738850000000,,0x5CFD,
0.019746010000000,,0x2BCA,
0.019753210000000,,0x0116,
0.019760360000000,,0x36AE,
0.019767570000000,,0x0732,
0.019774720000000,,0x08ED,
0.019781890000000,,0x431C,
0.019789030000000,,0x4A44,
0.019796230000000,,0x6072,
0.019803380000000,,0x45DC,
0.019810560000000,,0x1157,
0.019817750000000,,0x628B,
0.019824920000000,,0x45BB,
0.019832090000000,,0x6F7E,
0.019839230000000,,0x5038,
0.019846380000000,,0x7F34,
0.019853530000000,,0x1DA4,
0.019860710000000,,0x41FB,
0.019867860000000,,0x3D38,
0.019875020000000,,0x5260,
0.019882200000000,,0x31CD,
0.019889370000000,,0x0678,
0.019896510000000,,0x1D73,
0.019903690000000,,0x799C,
0.019910820000000,,0x0313,
0.019917970000000,,0x17AC,
0.019925150000000,,0x6481,
0.019932320000000,,0x4843,
0.019939480000000,,0x142C,
0.019946670000000,,0x6809,
0.019953830000000,,0x375D,
0.019961040000000,,0x5C41,
0.019968190000000,,0x4F9E,
0.019975330000000,,0x6028,
0.019982490000000,,0x1184,
0.019989640000000,,0x78D8,
0.019996790000000,,0x61CB,
0.020003970000000,,0x0EEC,
0.020011130000000,,0x131B,
0.020018300000000,,0x0E1B,
0.020025460000000,,0x2BC7,
0.020032630000000,,0x6FC7,
0.020039770000000,,0x1ED5,
0.020046960000000,,0x02C7,
0.020054110000000,,0x77C7,
0.020061240000000,,0x6DE5,
0.020068420000000,,0x04CF,
0.020075580000000,,0x2F63,
0.020082750000000,,0x58D1,
0.020089920000000,,0x5A5A,
0.020097130000000,,0x0EF0,
0.020104270000000,,0x315C,
0.020111440000000,,0x0C46,
0.020118600000000,,0x0BC1,
0.020125740000000,,0x2B9D,
0.020132940000000,,0x3B9F,
0.020140090000000,,0x775A,
0.020147280000000,,0x0187,
0.020154400000000,,0x3C90,
0.020161570000000,,0x1180,
0.020168690000000,,0x5AEC,
0.020175890000000,,0x7B90,
0.020183040000000,,0x2AB2,
0.020190260000000,,0x0574,
0.020197440000000,,0x310F,
0.020204580000000,,0x14FB,
0.020211760000000,,0x506E,
0.020218920000000,,0x0976,
0.020226100000000,,0x198D,
0.020233270000000,,0x1AD2,
0.020240480000000,,0x2E13,
0.020247650000000,,0x18DB,
0.020254830000000,,0x694D,
0.020262030000000,,0x5585,
0.020269230000000,,0x4501,
0.020276380000000,,0x3804,
0.020283520000000,,0x2670,
0.020290660000000,,0x2E6F,
0.020297840000000,,0x7F16,
0.020304970000000,,0x4843,
0.020312140000000,,0x506A,
0.020319320000000,,0x2B42,
0.020326520000000,,0x03D6,
0.020333670000000,,0x3E8C,
0.020340820000000,,0x387C,
0.020347950000000,,0x27CF,
0.020355100000000,,0x5671,
0.020362270000000,,0x6A2C,
0.020369450000000,,0x52A2,
0.020376670000000,,0x234E,
0.020383840000000,,0x4B65,
0.020391060000000,,0x6D99,
0.020398240000000,,0x6302,
0.020405380000000,,0x0E6D,
0.020412550000000,,0x5D3E,
0.020419710000000,,0x3419,
0.020426870000000,,0x3522,
0.020434080000000,,0x29A0,
0.020441250000000,,0x1A55,
0.020448460000000,,0x5318,
0.020455620000000,,0x35AF,
0.020462810000000,,0x01D9,
0.020469970000000,,0x0EBA,
0.020477150000000,,0x211F,
0.020484300000000,,0x4979,
0.020491470000000,,0x4465,
0.020498650000000,,0x1E21,
0.020505800000000,,0x238C,
0.020512960000000,,0x1DA0,
0.020520120000000,,0x63CF,
0.020527270000000,,0x2763,
0.020534440000000,,0x763E,
0.020541580000000,,0x27A2,
0.020548750000000,,0x396C,
0.020555930000000,,0x224F,
0.020563100000000,,0x4635,
0.020570270000000,,0x14B0,
0.020577450000000,,0x0CE6,
0.020584600000000,,0x0994,
0.020591770000000,,0x0BB5,
0.020598970000000,,0x0838,
0.020606100000000,,0x2E27,
0.020613270000000,,0x3A09,
0.020620450000000,,0x431A,
0.020627610000000,,0x796A,
0.020634810000000,,0x7704,
0.020641960000000,,0x33AD,
0.020649150000000,,0x0C0F,
0.020656290000000,,0x0215,
0.020663460000000,,0x6519,
0.020670630000000,,0x4F03,
0.020677760000000,,0x0C4A,
0.020684940000000,,0x29DB,
0.020692140000000,,0x463B,
0.020699290000000,,0x63F6,
0.020706430000000,,0x2F26,
0.020713600000000,,0x3759,
0.020720800000000,,0x3A33,
0.020727970000000,,0x168E,
0.020735160000000,,0x70FD,
0.020742300000000,,0x6526,
0.020749490000000,,0x302E,
0.020756640000000,,0x1910,
0.020763790000000,,0x76B0,
0.020770970000000,,0x164C,
0.020778140000000,,0x2638,
0.020785290000000,,0x6B70,
0.020792470000000,,0x744F,
0.020799630000000,,0x6143,
0.020806780000000,,0x0C2C,
0.020813940000000,,0x1B39,
0.020821110000000,,0x3155,
0.020828330000000,,0x04E5,
0.020835500000000,,0x7AAA,
0.020842700000000,,0x3EBD,
0.020849880000000,,0x3017,
0.020857030000000,,0x1155,
0.020864240000000,,0x37D7,
0.020871420000000,,0x0BDD,
0.020878600000000,,0x09DA,
0.020885780000000,,0x39C2,
0.020892930000000,,0x575C,
0.020900130000000,,0x45DD,
0.020907320000000,,0x19DA,
0.020914510000000,,0x641D,
0.020921670000000,,0x2CAC,
0.020928880000000,,0x2AE5,
0.020936090000000,,0x3FFD,
0.020943220000000,,0x70FB,
0.020950360000000,,0x124E,
0.020957550000000,,0x6413,
0.020964720000000,,0x5BEA,
0.020971910000000,,0x0925,
0.020979100000000,,0x0130,
0.020986230000000,,0x417D,
0.020993400000000,,0x0CF8,
0.021000530000000,,0x3AC9,
0.021007730000000,,0x04C5,
0.021014900000000,,0x7A11,
0.021022060000000,,0x614A,
0.021029240000000,,0x40C9,
0.021036400000000,,0x2919,
0.021043600000000,,0x10FE,
0.021050730000000,,0x6DA0,
0.021057920000000,,0x6B47,
0.021065110000000,,0x4F0A,
0.021072270000000,,0x40AF,
0.021079440000000,,0x1BFB,
0.021086590000000,,0x6790,
0.021093730000000,,0x0AB3,
0.021100920000000,,0x3ECB,
0.021108110000000,,0x46EE,
0.021115270000000,,0x4A8B,
0.021122480000000,,0x1C20,
0.021129610000000,,0x20BA,
0.021136790000000,,0x6448,
0.021143960000000,,0x073F,
0.021151090000000,,0x663C,
0.021158220000000,,0x6B67,
0.021165420000000,,0x4FB1,
0.021172570000000,,0x1F58,
0.021179740000000,,0x6B25,
0.021186950000000,,0x5FDC,
0.021194090000000,,0x2D9A,
0.021201290000000,,0x58B6,
0.021208490000000,,0x2473,
0.021215660000000,,0x3C43,
0.021222810000000,,0x0BD3,
0.021229980000000,,0x7E9C,
0.021237120000000,,0x1A02,
0.021244270000000,,0x6991,
0.021251460000000,,0x745B,
0.021258640000000,,0x076C,
0.021265800000000,,0x3AC7,
0.021272970000000,,0x7383,
0.021280100000000,,0x59D1,
0.021287270000000,,0x5F87,
0.021294410000000,,0x714F,
0.021301560000000,,0x37AF,
0.021308740000000,,0x4E24,
0.021315900000000,,0x328F,
0.021323070000000,,0x1873,
0.021330230000000,,0x2F70,
0.021337390000000,,0x411B,
0.021344560000000,,0x3E1A,
0.021351720000000,,0x4DA7,
0.021358910000000,,0x63D6,
0.021366070000000,,0x2F9D,
0.021373240000000,,0x68AE,
0.021380420000000,,0x4AED,
0.021387630000000,,0x2EC2,
0.021394810000000,,0x57D4,
0.021402010000000,,0x035B,
0.021409180000000,,0x52B3,
0.021416380000000,,0x6FD8,
0.021423510000000,,0x6143,
0.021430680000000,,0x486A,
0.021437860000000,,0x5872,
0.021445040000000,,0x05DE,
0.021452190000000,,0x6628,
0.021459370000000,,0x0D48,
0.021466540000000,,0x795A,
0.021473740000000,,0x77E2,
0.021480900000000,,0x03A1,
0.021488040000000,,0x04BE,
0.021495210000000,,0x267F,
0.021502360000000,,0x51A4,
0.021509540000000,,0x5A40,
0.021516710000000,,0x1F99,
0.021523860000000,,0x2477,
0.021531040000000,,0x5A31,
0.021538210000000,,0x52C3,
0.021545400000000,,0x6E49,
0.021552570000000,,0x6EA0,
0.021559730000000,,0x2167,
0.021566900000000,,0x0C80,
0.021574040000000,,0x7F30,
0.021581170000000,,0x3F90,
0.021588310000000,,0x5BA0,
0.021595480000000,,0x1966,
0.021602670000000,,0x440F,
0.021609810000000,,0x0ED9,
0.021616990000000,,0x3944,
0.021624170000000,,0x22DA,
0.021631370000000,,0x6E3F,
0.021638520000000,,0x1859,
0.021645680000000,,0x7AB9,
0.021652860000000,,0x2777,
0.021660040000000,,0x5457,
0.021667230000000,,0x5202,
0.021674390000000,,0x655D,
0.021681600000000,,0x2806,
0.021688760000000,,0x6AB5,
0.021696000000000,,0x58B2,
0.021703180000000,,0x4201,
0.021710330000000,,0x6553,
0.021717520000000,,0x1B06,
0.021724680000000,,0x0A3E,
0.021731830000000,,0x52F4,
0.021739030000000,,0x114A,
0.021746230000000,,0x0C07,
0.021753350000000,,0x023B,
0.021760510000000,,0x12E4,
0.021767690000000,,0x3334,
0.021774870000000,,0x4259,
0.021782060000000,,0x2011,
0.021789220000000,,0x7FA4,
0.021796350000000,,0x5B51,
0.021803560000000,,0x1294,
0.021810760000000,,0x32A5,
0.021817970000000,,0x4DBA,
0.021825150000000,,0x491C,
0.021832320000000,,0x2B56,
0.021839540000000,,0x21BF,
0.021846680000000,,0x4B2C,
0.021853870000000,,0x644D,
0.021861050000000,,0x2D86,
0.021868240000000,,0x7AF1,
0.021875410000000,,0x262E,
0.021882590000000,,0x1C45,
0.021889760000000,,0x4F89,
0.021896910000000,,0x5BD6,
0.021904100000000,,0x6F9F,
0.021911250000000,,0x1FD1,
0.021918400000000,,0x252E,
0.021925610000000,,0x1223,
0.021932770000000,,0x4F48,
0.021939930000000,,0x50C2,
0.021947110000000,,0x2939,
0.021954300000000,,0x5403,
0.021961460000000,,0x711C,
0.021968590000000,,0x2F12,
0.021975760000000,,0x158B,
0.021982950000000,,0x1064,
0.021990110000000,,0x3A61,
0.021997270000000,,0x42F8,
0.022004410000000,,0x6E8F,
0.022011580000000,,0x1A51,
0.022018780000000,,0x356A,
0.022026010000000,,0x6CBF,
0.022033180000000,,0x110C,
0.022040330000000,,0x7A18,
0.022047490000000,,0x69E9,
0.022054680000000,,0x31A2,
0.022061860000000,,0x3C39,
0.022069010000000,,0x1B76,
0.022076190000000,,0x0BAF,
0.022083360000000,,0x5D17,
0.022090530000000,,0x7847,
0.022097660000000,,0x58F5,
0.022104840000000,,0x78D5,
0.022112020000000,,0x4B5C,
0.022119200000000,,0x65DC,
0.022126380000000,,0x2265,
0.022133570000000,,0x13FC,
0.022140700000000,,0x72DC,
0.022147880000000,,0x66AB,
0.022155090000000,,0x1631,
0.022162270000000,,0x0D3E,
0.022169430000000,,0x0FA3,
0.022176570000000,,0x2C3C,
0.022183730000000,,0x2856,
0.022190930000000,,0x2FD9,
0.022198100000000,,0x4BED,
0.022205280000000,,0x6F59,
0.022212450000000,,0x6B20,
0.022219620000000,,0x3123,
0.022226790000000,,0x721C,
0.022233920000000,,0x2174,
0.022241100000000,,0x154A,
0.022248320000000,,0x1B70,
0.022255470000000,,0x7CC7,
0.022262620000000,,0x092A,
0.022269820000000,,0x3ABD,
0.022277010000000,,0x2760,
0.022284170000000,,0x6FA9,
0.022291360000000,,0x2C19,
0.022298540000000,,0x0254,
0.022305720000000,,0x6CE3,
0.022312890000000,,0x767A,
0.022320050000000,,0x04E1,
0.022327190000000,,0x1CD8,
0.022334360000000,,0x67AD,
0.022341550000000,,0x20C2,
0.022348700000000,,0x65F7,
0.022355870000000,,0x7F21,
0.022363010000000,,0x7306,
0.022370140000000,,0x7186,
0.022377300000000,,0x3C95,
0.022384500000000,,0x7F7F,
0.022391600000000,,0x056A,
0.022398810000000,,0x0252,
0.022405980000000,,0x1B8B,
0.022413150000000,,0x2247,
0.022420330000000,,0x461B,
0.022427490000000,,0x634D,
0.022434660000000,,0x70D1,
0.022441810000000,,0x4787,
0.022448940000000,,0x027F,
0.022456070000000,,0x31A7,
0.022463250000000,,0x1680,
0.022470410000000,,0x07BB,
0.022477560000000,,0x46E6,
0.022484710000000,,0x0EE3,
0.022491860000000,,0x2896,
0.022499060000000,,0x6806,
0.022506210000000,,0x4896,
0.022513410000000,,0x7917,
0.022520580000000,,0x1844,
0.022527730000000,,0x1435,
0.022534930000000,,0x60F7,
0.022542060000000,,0x29CD,
0.022549250000000,,0x310E,
0.022556410000000,,0x5830,
0.022563560000000,,0x15B3,
0.022570760000000,,0x54EA,
0.022577950000000,,0x3EDB,
0.022585130000000,,0x02F5,
0.022592300000000,,0x663B,
0.022599460000000,,0x50C4,
0.022606610000000,,0x5E51,
0.022613810000000,,0x003E,
0.022620920000000,,0x33E6,
0.022628070000000,,0x5087,
0.022635240000000,,0x02F7,
0.022642390000000,,0x7721,
0.022649540000000,,0x5DE9,
0.022656720000000,,0x0C7E,
0.022663860000000,,0x0B09,
0.022671020000000,,0x6C6C,
0.022678180000000,,0x4F19,
0.022685350000000,,0x1D23,
0.022692530000000,,0x3CF0,
0.022699660000000,,0x104C,
0.022706810000000,,0x3AF4,
0.022713990000000,,0x6AF2,
0.022721190000000,,0x6266,
0.022728360000000,,0x6C0E,
0.022735520000000,,0x1B89,
0.022742690000000,,0x335D,
0.022749890000000,,0x4B36,
0.022757070000000,,0x3162,
0.022764240000000,,0x7BE6,
0.022771400000000,,0x180D,
0.022778540000000,,0x1DE1,
0.022785700000000,,0x2E73,
0.022792870000000,,0x5D51,
0.022800070000000,,0x4A1E,
0.022807230000000,,0x706C,
0.022814390000000,,0x6F18,
0.022821540000000,,0x269C,
0.022828710000000,,0x4B11,
0.022835900000000,,0x4E3C,
0.022843040000000,,0x76BA,
0.022850240000000,,0x433E,
0.022857390000000,,0x1FA3,
0.022864540000000,,0x71E3,
0.022871670000000,,0x53A6,
0.022878840000000,,0x40E1,
0.022885990000000,,0x6DCA,
0.022893170000000,,0x7BBF,
0.022900330000000,,0x55C2,
0.022907510000000,,0x7FD5,
0.022914670000000,,0x160B,
0.022921840000000,,0x58AA,
0.022929050000000,,0x0634,
0.022936200000000,,0x3E1E,
0.022943330000000,,0x2BD5,
0.022950540000000,,0x3AC6,
0.022957720000000,,0x3F48,
0.022964870000000,,0x1C0C,
0.022972010000000,,0x021B,
0.022979150000000,,0x5619,
0.022986320000000,,0x2F88,
0.022993480000000,,0x060C,
0.023000610000000,,0x7A90,
0.023007790000000,,0x2F6F,
0.023014960000000,,0x7ACB,
0.023022130000000,,0x37FC,
0.023029270000000,,0x5699,
0.023036480000000,,0x6920,
0.023043640000000,,0x3A98,
0.023050820000000,,0x0D62,
0.023057990000000,,0x2C93,
0.023065190000000,,0x118E,
0.023072350000000,,0x69EC,
0.023079520000000,,0x1B1B,
0.023086690000000,,0x20F4,
0.023093850000000,,0x563F,
0.023101020000000,,0x585B,
0.023108210000000,,0x0DC6,
0.023115360000000,,0x48B4,
0.023122560000000,,0x68B6,
0.023129760000000,,0x4A9E,
0.023136960000000,,0x36C4,
0.023144130000000,,0x538C,
0.023151300000000,,0x516E,
0.023158500000000,,0x48ED,
0.023165690000000,,0x2579,
0.023172890000000,,0x28AA,
0.023180110000000,,0x0EBC,
0.023187260000000,,0x5677,
0.023194450000000,,0x1D44,
0.023201630000000,,0x069F,
0.023208780000000,,0x61B4,
0.023215940000000,,0x34F0,
0.023223090000000,,0x7AE5,
0.023230280000000,,0x0447,
0.023237430000000,,0x69E5,
0.023244600000000,,0x13B8,
0.023251760000000,,0x519F,
0.023258930000000,,0x431F,
0.023266060000000,,0x53D3,
0.023273230000000,,0x6BC9,
0.023280410000000,,0x7EE4,
0.023287550000000,,0x5FFB,
0.023294700000000,,0x52C4,
0.023301880000000,,0x55EA,
0.023309100000000,,0x7F40,
0.023316230000000,,0x3E01,
0.023323350000000,,0x5443,
0.023330530000000,,0x706B,
0.023337680000000,,0x10FD,
0.023344830000000,,0x7437,
0.023351990000000,,0x60FC,
0.023359100000000,,0x7432,
0.023366280000000,,0x0E03,
0.023373400000000,,0x2BB4,
0.023380600000000,,0x77C1,
0.023387750000000,,0x1A8D,
0.023394950000000,,0x50F2,
0.023402110000000,,0x6D99,
0.023409300000000,,0x2744,
0.023416490000000,,0x4D26,
0.023423680000000,,0x69B5,
0.023430900000000,,0x56D4,
0.023438110000000,,0x42C0,
0.023445260000000,,0x6E47,
0.023452430000000,,0x5DA0,
0.023459590000000,,0x41EC,
0.023466750000000,,0x06C6,
0.023473900000000,,0x2C7B,
0.023481070000000,,0x56C4,
0.023488250000000,,0x429D,
0.023495440000000,,0x01BC,
0.023502580000000,,0x25CF,
0.023509750000000,,0x5DCA,
0.023516930000000,,0x1552,
0.023524140000000,,0x5F45,
0.023531330000000,,0x278A,
0.023538510000000,,0x39F9,
0.023545660000000,,0x0A45,
0.023552850000000,,0x4ADC,
0.023560040000000,,0x62EF,
0.023567210000000,,0x2205,
0.023574380000000,,0x5676,
0.023581570000000,,0x518F,
0.023588740000000,,0x4342,
0.023595900000000,,0x3C28,
0.023603050000000,,0x13A6,
0.023610220000000,,0x62C2,
0.023617400000000,,0x4C6F,
0.023624560000000,,0x21FA,
0.023631720000000,,0x24A4,
0.023638920000000,,0x0424,
0.023646070000000,,0x35F8,
0.023653220000000,,0x3B50,
0.023660400000000,,0x4F4E,
0.023667580000000,,0x27AA,
0.023674770000000,,0x7D04,
0.023681920000000,,0x16F9,
0.023689080000000,,0x0E89,
0.023696260000000,,0x386E,
0.023703410000000,,0x72CE,
0.023710580000000,,0x77EC,
0.023717740000000,,0x74E7,
0.023724920000000,,0x277E,
0.023732080000000,,0x18B2,
0.023739260000000,,0x6022,
0.023746410000000,,0x44F6,
0.023753580000000,,0x4143,
0.023760750000000,,0x7B58,
0.023767910000000,,0x2905,
0.023775100000000,,0x32B9,
0.023782300000000,,0x6FFD,
0.023789420000000,,0x4B41,
0.023796600000000,,0x0B50,
0.023803780000000,,0x65E5,
0.023810970000000,,0x6E66,
0.023818140000000,,0x11D0,
0.023825290000000,,0x5BC6,
0.023832460000000,,0x2B84,
0.023839630000000,,0x3361,
0.023846800000000,,0x69CA,
0.023853980000000,,0x6CC8,
0.023861160000000,,0x2B3E,
0.023868340000000,,0x641B,
0.023875510000000,,0x1F82,
0.023882640000000,,0x3D93,
0.023889820000000,,0x498C,
0.023896970000000,,0x6DA3,
0.023904170000000,,0x72D0,
0.023911330000000,,0x44B1,
0.023918520000000,,0x7B97,
0.023925680000000,,0x5557,
0.023932900000000,,0x57DF,
0.023940050000000,,0x1AE2,
0.023947240000000,,0x2EF5,
0.023954430000000,,0x28D7,
0.023961630000000,,0x61FC,
0.023968740000000,,0x71EF,
0.023975890000000,,0x71BC,
0.023983020000000,,0x2D47,
0.023990220000000,,0x35A3,
0.023997410000000,,0x23C3,
0.024004570000000,,0x631C,
0.024011700000000,,0x7976,
0.024018880000000,,0x1105,
0.024026040000000,,0x72BB,
0.024033220000000,,0x1882,
0.024040380000000,,0x2482,
0.024047550000000,,0x37B1,
0.024054720000000,,0x7D79,
0.024061870000000,,0x3DFF,
0.024069000000000,,0x6A5A,
0.024076200000000,,0x601D,
0.024083340000000,,0x3BDB,
0.024090520000000,,0x5419,
0.024097690000000,,0x2433,
0.024104860000000,,0x7972,
0.024112020000000,,0x7777,
0.024119200000000,,0x2BAB,
0.024126410000000,,0x0857,
0.024133590000000,,0x5020,
0.024140720000000,,0x7F47,
0.024147870000000,,0x05A2,
0.024155050000000,,0x45A3,
0.024162240000000,,0x6F0D,
0.024169390000000,,0x483E,
0.024176520000000,,0x7B6C,
0.024183700000000,,0x4F91,
0.024190870000000,,0x5BA5,
0.024198070000000,,0x7799,
0.024205220000000,,0x1B89,
0.024212390000000,,0x771B,
0.024219550000000,,0x087D,
0.024226700000000,,0x05E9,
0.024233870000000,,0x192B,
0.024241070000000,,0x6FEF,
0.024248200000000,,0x5A06,
0.024255360000000,,0x6986,
0.024262530000000,,0x4FA5,
0.024269730000000,,0x7977,
0.024276880000000,,0x5DCE,
0.024284050000000,,0x3766,
0.024291230000000,,0x451E,
0.024298400000000,,0x03D4,
0.024305540000000,,0x2F96,
0.024312730000000,,0x3551,
0.024319940000000,,0x75E0,
0.024327070000000,,0x5D46,
0.024334270000000,,0x35A6,
0.024341470000000,,0x4D3C,
0.024348640000000,,0x3C9A,
0.024355820000000,,0x00B4,
0.024362970000000,,0x203C,
0.024370100000000,,0x5588,
0.024377290000000,,0x6F96,
0.024384470000000,,0x5334,
0.024391660000000,,0x170E,
0.024398820000000,,0x3388,
0.024405970000000,,0x260D,
0.024413140000000,,0x412F,
0.024420290000000,,0x588E,
0.024427450000000,,0x24BB,
0.024434640000000,,0x7BB2,
0.024441800000000,,0x7F55,
0.024448980000000,,0x14E5,
0.024456180000000,,0x2775,
0.024463380000000,,0x454D,
0.024470570000000,,0x5F2F,
0.024477730000000,,0x3772,
0.024484920000000,,0x2331,
0.024492080000000,,0x353F,
0.024499250000000,,0x472C,
0.024506400000000,,0x5DD5,
0.024513610000000,,0x2E82,
0.024520790000000,,0x56A3,
0.024528000000000,,0x3CB4,
0.024535190000000,,0x330F,
0.024542330000000,,0x1F40,
0.024549470000000,,0x2F10,
0.024556630000000,,0x0491,
0.024563790000000,,0x1D49,
0.024570990000000,,0x684E,
0.024578150000000,,0x49CF,
0.024585320000000,,0x3105,
0.024592490000000,,0x05CF,
0.024599640000000,,0x2ABE,
0.024606840000000,,0x276E,
0.024614020000000,,0x5CA9,
0.024621240000000,,0x4C92,
0.024628420000000,,0x0812,
0.024635570000000,,0x3FA8,
0.024642720000000,,0x1F2E,
0.024649870000000,,0x1DDC,
0.024657030000000,,0x0402,
0.024664150000000,,0x066D,
0.024671330000000,,0x73D1,
0.024678480000000,,0x49E1,
0.024685630000000,,0x02BE,
0.024692790000000,,0x3AB3,
0.024699990000000,,0x5026,
0.024707150000000,,0x4C69,
0.024714340000000,,0x12D4,
0.024721540000000,,0x33D2,
0.024728710000000,,0x7255,
0.024735910000000,,0x28A0,
0.024743090000000,,0x5BCE,
0.024750270000000,,0x6FEC,
0.024757420000000,,0x07D7,
0.024764570000000,,0x2176,
0.024771750000000,,0x4016,
0.024778900000000,,0x5516,
0.024786110000000,,0x1A63,
0.024793280000000,,0x60D0,
0.024800420000000,,0x12D5,
0.024807630000000,,0x7F19,
0.024814760000000,,0x3788,
0.024821910000000,,0x753C,
0.024829090000000,,0x7C98,
0.024836240000000,,0x77CB,
0.024843410000000,,0x4FFF,
0.024850520000000,,0x6969,
0.024857720000000,,0x770A,
0.024864880000000,,0x00AD,
0.024872040000000,,0x6C84,
0.024879210000000,,0x0853,
0.024886370000000,,0x3652,
0.024893580000000,,0x2657,
0.024900760000000,,0x1577,
0.024907960000000,,0x3101,
0.024915110000000,,0x27FB,
0.024922260000000,,0x30E5,
0.024929440000000,,0x0330,
0.024936580000000,,0x4AC6,
0.024943780000000,,0x7386,
0.024950930000000,,0x372E,
0.024958110000000,,0x0001,
0.024965210000000,,0x088D,
0.024972380000000,,0x0696,
0.024979560000000,,0x6917,
0.024986760000000,,0x459B,
0.024993930000000,,0x6FC5,
0.025001080000000,,0x0FCF,
0.025008210000000,,0x0FEA,
0.025015370000000,,0x25E8,
0.025022540000000,,0x66D2,
0.025029740000000,,0x5B45,
0.025036960000000,,0x30FD,
0.025044110000000,,0x4705,
0.025051260000000,,0x118B,
0.025058440000000,,0x4355,
0.025065630000000,,0x07D6,
0.025072790000000,,0x6DBD,
0.025079980000000,,0x05CB,
0.025087160000000,,0x088A,
0.025094340000000,,0x3D35,
0.025101540000000,,0x78F7,
0.025108670000000,,0x5AFD,
0.025115840000000,,0x3706,
0.025123010000000,,0x0094,
0.025130150000000,,0x2087,
0.025137300000000,,0x0A7F,
0.025144450000000,,0x1F48,
0.025151610000000,,0x6B78,
0.025158790000000,,0x3027,
0.025165930000000,,0x55F5,
0.025173130000000,,0x4490,
0.025180290000000,,0x37E7,
0.025187440000000,,0x4F7D,
0.025194590000000,,0x7A9D,
0.025201770000000,,0x05F8,
0.025208910000000,,0x11FB,
0.025216050000000,,0x0682,
0.025223210000000,,0x4B7E,
0.025230390000000,,0x303B,
0.025237530000000,,0x33F4,
0.025244700000000,,0x0586,
0.025251850000000,,0x236A,
0.025259050000000,,0x69EA,
0.025266240000000,,0x2835,
0.025273430000000,,0x3782,
0.025280590000000,,0x204E,
0.025287740000000,,0x4503,
0.025294910000000,,0x6D58,
0.025302090000000,,0x6816,
0.025309270000000,,0x48CB,
0.025316460000000,,0x16EC,
0.025323650000000,,0x602B,
0.025330820000000,,0x0813,
0.025337970000000,,0x7363,
0.025345120000000,,0x5AF3,
0.025352300000000,,0x4040,
0.025359410000000,,0x2354,
0.025366600000000,,0x1E4A,
0.025373770000000,,0x3BF9,
0.025380930000000,,0x01FE,
0.025388040000000,,0x35A2,
0.025395240000000,,0x6F08,
0.025402390000000,,0x26C1,
0.025409550000000,,0x24EA,
0.025416760000000,,0x3653,
0.025423950000000,,0x6A9C,
0.025431130000000,,0x50AA,
0.025438350000000,,0x6C9D,
0.025445550000000,,0x00AD,
0.025452710000000,,0x28C2,
0.025459890000000,,0x4B18,
0.025467070000000,,0x02D9,
0.025474240000000,,0x449A,
0.025481410000000,,0x6295,
0.025488620000000,,0x76E6,
0.025495790000000,,0x600E,
0.025502920000000,,0x2211,
0.025510090000000,,0x3059,
0.025517260000000,,0x6764,
0.025524430000000,,0x2BF8,
0.025531570000000,,0x54AC,
0.025538790000000,,0x48C4,
0.025545970000000,,0x6927,
0.025553160000000,,0x457D,
0.025560330000000,,0x5FC9,
0.025567480000000,,0x077E,
0.025574620000000,,0x2B80,
0.025581770000000,,0x1155,
0.025588970000000,,0x7391,
0.025596130000000,,0x4896,
0.025603310000000,,0x3D51,
0.025610500000000,,0x5B0F,
0.025617660000000,,0x20BE,
0.025624820000000,,0x023A,
0.025631970000000,,0x5E2F,
0.025639140000000,,0x76E9,
0.025646310000000,,0x1FC5,
0.025653460000000,,0x0747,
0.025660610000000,,0x6783,
0.025667740000000,,0x1379,
0.025674910000000,,0x5A8B,
0.025682110000000,,0x05B9,
0.025689290000000,,0x1801,
0.025696410000000,,0x3FFB,
0.025703550000000,,0x43D5,
0.025710720000000,,0x0538,
0.025717880000000,,0x1262,
0.025725050000000,,0x46B2,
0.025732250000000,,0x69BB,
0.025739440000000,,0x2192,
0.025746630000000,,0x6100,
0.025753760000000,,0x508A,
0.025760950000000,,0x6C26,
0.025768130000000,,0x5F5A,
0.025775330000000,,0x581C,
0.025782480000000,,0x7354,
0.025789680000000,,0x25F0,
0.025796830000000,,0x22E7,
0.025804000000000,,0x0008,
0.025811120000000,,0x002E,
0.025818240000000,,0x77FD,
0.025825390000000,,0x7C37,
0.025832530000000,,0x4E13,
0.025839680000000,,0x09CA,
0.025846850000000,,0x399F,
0.025854000000000,,0x38A7,
0.025861170000000,,0x3DB2,
0.025868360000000,,0x05FC,
0.025875490000000,,0x7789,
0.025882670000000,,0x5F92,
0.025889830000000,,0x5BAB,
0.025897050000000,,0x4499,
0.025904230000000,,0x7B02,
0.025911360000000,,0x7D5D,
0.025918550000000,,0x5B36,
0.025925740000000,,0x6CBD,
0.025932940000000,,0x0016,
0.025940080000000,,0x7735,
0.025947270000000,,0x3BC6,
0.025954430000000,,0x3A95,
0.025961640000000,,0x63B3,
0.025968800000000,,0x04E8,
0.025975960000000,,0x147B,
0.025983120000000,,0x16C6,
0.025990310000000,,0x35E2,
0.025997480000000,,0x6E7F,
0.026004630000000,,0x192E,
0.026011810000000,,0x4556,
0.026019030000000,,0x46CB,
0.026026220000000,,0x24CF,
0.026033390000000,,0x1C51,
0.026040560000000,,0x29A6,
0.026047770000000,,0x6D3D,
0.026054960000000,,0x0725,
0.026062140000000,,0x7755,
0.026069330000000,,0x7E4C,
0.026076470000000,,0x19C6,
0.026083620000000,,0x465A,
0.026090820000000,,0x2EF1,
0.026097990000000,,0x0AE3,
0.026105160000000,,0x7BA7,
0.026112320000000,,0x55B1,
0.026119520000000,,0x67D3,
0.026126670000000,,0x1253,
0.026133860000000,,0x0A9F,
0.026141040000000,,0x1C6A,
0.026148220000000,,0x74BF,
0.026155400000000,,0x623C,
0.026162530000000,,0x7C10,
0.026169660000000,,0x314D,
0.026176850000000,,0x0496,
0.026184030000000,,0x62AC,
0.026191220000000,,0x3AE5,
0.026198420000000,,0x6222,
0.026205570000000,,0x0B0B,
0.026212740000000,,0x7D76,
0.026219900000000,,0x4234,
0.026227070000000,,0x4F0C,
0.026234230000000,,0x37C7,
0.026241380000000,,0x4FC6,
0.026248520000000,,0x256A,
0.026255740000000,,0x7526,
0.026262930000000,,0x29B7,
0.026270120000000,,0x21AB,
0.026277320000000,,0x2D03,
0.026284490000000,,0x52A6,
0.026291690000000,,0x453C,
0.026298870000000,,0x1275,
0.026306060000000,,0x7D4C,
0.026313220000000,,0x17A0,
0.026320370000000,,0x469B,
0.026327570000000,,0x25E5,
0.026334770000000,,0x4C45,
0.026341940000000,,0x3075,
0.026349120000000,,0x0183,
0.026356250000000,,0x5AE2,
0.026363430000000,,0x4890,
0.026370610000000,,0x4A39,
0.026377800000000,,0x0F32,
0.026384960000000,,0x6244,
0.026392130000000,,0x7DAF,
0.026399300000000,,0x4953,
0.026406500000000,,0x11AC,
0.026413690000000,,0x784D,
0.026420850000000,,0x49C1,
0.026428010000000,,0x0205,
0.026435160000000,,0x6544,
0.026442340000000,,0x20F8,
0.026449470000000,,0x7425,
0.026456660000000,,0x35FD,
0.026463840000000,,0x55AF,
0.026471030000000,,0x10C8,
0.026478190000000,,0x5E68,
0.026485370000000,,0x4C3D,
0.026492540000000,,0x31CA,
0.026499720000000,,0x799D,
0.026506890000000,,0x4FD8,
0.026514030000000,,0x5271,
0.026521210000000,,0x391D,
0.026528390000000,,0x6F15,
0.026535560000000,,0x0C0B,
0.026542720000000,,0x2021,
0.026549870000000,,0x7F42,
0.026557010000000,,0x6B5D,
0.026564220000000,,0x1A25,
0.026571420000000,,0x16CF,
0.026578600000000,,0x7907,
0.026585730000000,,0x5C5F,
0.026592880000000,,0x3885,
0.026600050000000,,0x2C13,
0.026607230000000,,0x5726,
0.026614410000000,,0x5578,
0.026621600000000,,0x6CE9,
0.026628800000000,,0x2308,
0.026635960000000,,0x3D7A,
0.026643130000000,,0x064B,
0.026650310000000,,0x4044,
0.026657440000000,,0x0160,
0.026664580000000,,0x0411,
0.026671720000000,,0x1FA7,
0.026678870000000,,0x1791,
0.026686040000000,,0x0AB6,
0.026693240000000,,0x5034,
0.026700420000000,,0x1968,
0.026707600000000,,0x3349,
0.026714790000000,,0x2D19,
0.026721990000000,,0x0789,
0.026729140000000,,0x135C,
0.026736320000000,,0x7089,
0.026743490000000,,0x4683,
0.026750640000000,,0x2596,
0.026757850000000,,0x5443,
0.026765040000000,,0x342D,
0.026772240000000,,0x53B6,
0.026779420000000,,0x40BC,
0.026786580000000,,0x0231,
0.026793720000000,,0x03D0,
0.026800860000000,,0x49E4,
0.026808030000000,,0x6C41,
0.026815200000000,,0x6535,
0.026822400000000,,0x29E4,
0.026829570000000,,0x7D50,
0.026836750000000,,0x35E7,
0.026843930000000,,0x44C6,
0.026851080000000,,0x05E3,
0.026858220000000,,0x081F,
0.026865350000000,,0x153F,
0.026872520000000,,0x741E,
0.026879660000000,,0x2CA2,
0.026886850000000,,0x19E5,
0.026894030000000,,0x5F76,
0.026901190000000,,0x7ABD,
0.026908380000000,,0x4105,
0.026915530000000,,0x0D47,
0.026922710000000,,0x42D7,
0.026929880000000,,0x11FF,
0.026937010000000,,0x60F0,
0.026944120000000,,0x126E,
0.026951300000000,,0x20EE,
0.026958460000000,,0x4756,
0.026965660000000,,0x4D70,
0.026972830000000,,0x5BB1,
0.026980020000000,,0x11B6,
0.026987210000000,,0x2D62,
0.026994410000000,,0x1FA1,
0.027001550000000,,0x60F9,
0.027008680000000,,0x5E8B,
0.027015860000000,,0x12CE,
0.027023040000000,,0x66FD,
0.027030210000000,,0x2435,
0.027037410000000,,0x4A5C,
0.027044600000000,,0x6001,
0.027051710000000,,0x5DDA,
0.027058900000000,,0x150F,
0.027066070000000,,0x30BE,
0.027073230000000,,0x5FE5,
0.027080390000000,,0x25DF,
0.027087570000000,,0x19D1,
0.027094740000000,,0x39E2,
0.027101900000000,,0x13A1,
0.027109060000000,,0x5961,
0.027116240000000,,0x5D8F,
0.027123400000000,,0x3E9C,
0.027130570000000,,0x7C67,
0.027137710000000,,0x0B7F,
0.027144870000000,,0x1A95,
0.027152080000000,,0x14C7,
0.027159250000000,,0x36D4,
0.027166460000000,,0x1797,
0.027173630000000,,0x7DDE,
0.027180770000000,,0x0409,
0.027187910000000,,0x5B92,
0.027195100000000,,0x4CDC,
0.027202280000000,,0x3A65,
0.027209470000000,,0x60CC,
0.027216600000000,,0x74D4,
0.027223800000000,,0x3E0F,
0.027230920000000,,0x2305,
0.027238100000000,,0x53AB,
0.027245300000000,,0x2E30,
0.027252450000000,,0x45B1,
0.027259650000000,,0x7E4A,
0.027266800000000,,0x2AE8,
0.027273990000000,,0x512C,
0.027281190000000,,0x5880,
0.027288340000000,,0x17BB,
0.027295510000000,,0x1B39,
0.027302690000000,,0x7513,
0.027309870000000,,0x47AE,
0.027317030000000,,0x4E21,
0.027324190000000,,0x5C70,
0.027331330000000,,0x47F5,
0.027338500000000,,0x56B2,
0.027345710000000,,0x7022,
0.027352850000000,,0x1929,
0.027360040000000,,0x3AB3,
0.027367240000000,,0x1460,
0.027374400000000,,0x0F22,
0.027381550000000,,0x265F,
0.027388720000000,,0x511F,
0.027395870000000,,0x05B7,
0.027403050000000,,0x6F47,
0.027410200000000,,0x1C3B,
0.027417360000000,,0x7D18,
0.027424490000000,,0x34BE,
0.027431670000000,,0x0CD4,
0.027438840000000,,0x1868,
0.027446000000000,,0x3694,
0.027453190000000,,0x52A6,
0.027460420000000,,0x017A,
0.027467570000000,,0x513E,
0.027474750000000,,0x49C7,
0.027481910000000,,0x756D,
0.027489110000000,,0x3179,
0.027496290000000,,0x6202,
0.027503420000000,,0x0BB0,
0.027510570000000,,0x2281,
0.027517730000000,,0x32EA,
0.027524940000000,,0x7740,
0.027532090000000,,0x10EE,
0.027539250000000,,0x29BB,
0.027546440000000,,0x47F7,
0.027553570000000,,0x03EE,
0.027560710000000,,0x3E44,
0.027567860000000,,0x7F8D,
0.027575010000000,,0x5349,
0.027582210000000,,0x3C08,
0.027589340000000,,0x575B,
0.027596550000000,,0x7E7E,
0.027603660000000,,0x083A,
0.027610810000000,,0x7B7B,
0.027617990000000,,0x746F,
0.027625140000000,,0x25BE,
0.027632330000000,,0x1090,
0.027639470000000,,0x5F6C,
0.027646650000000,,0x6BD4,
0.027653850000000,,0x542E,
0.027661040000000,,0x5B30,
0.027668220000000,,0x1BD5,
0.027675410000000,,0x542B,
0.027682610000000,,0x35CF,
0.027689790000000,,0x4453,
0.027696960000000,,0x2DE9,
0.027704170000000,,0x04F6,
0.027711330000000,,0x6360,
0.027718480000000,,0x5AFD,
0.027725670000000,,0x7340,
0.027732810000000,,0x43DF,
0.027739960000000,,0x140C,
0.027747120000000,,0x68B2,
0.027754320000000,,0x68AA,
0.027761530000000,,0x2C9F,
0.027768700000000,,0x77D2,
0.027775860000000,,0x4701,
0.027783000000000,,0x77F9,
0.027790130000000,,0x1A45,
0.027797320000000,,0x1703,
0.027804480000000,,0x191F,
0.027811640000000,,0x4D3D,
0.027818820000000,,0x7051,
0.027825970000000,,0x4569,
0.027833160000000,,0x7DA0,
0.027840300000000,,0x72DE,
0.027847480000000,,0x77B1,
0.027854650000000,,0x1B1C,
0.027861810000000,,0x5F11,
0.027868970000000,,0x0494,
0.027876150000000,,0x73B6,
0.027883330000000,,0x37C8,
0.027890490000000,,0x300D,
0.027897630000000,,0x003C,
0.027904750000000,,0x22FC,
0.027911900000000,,0x5DAA,
0.027919120000000,,0x50D8,
0.027926290000000,,0x7C16,
0.027933450000000,,0x0263,
0.027940590000000,,0x13E0,
0.027947730000000,,0x14DD,
0.027954920000000,,0x27BD,
0.027962100000000,,0x02BC,
0.027969250000000,,0x2BA9,
0.027976460000000,,0x5D0B,
0.027983640000000,,0x1E46,
0.027990800000000,,0x19E3,
0.027997940000000,,0x6C58,
0.028005100000000,,0x6DCB,
0.028012300000000,,0x3774,
0.028019480000000,,0x101F,
0.028026610000000,,0x2249,
0.028033800000000,,0x315D,
0.028041000000000,,0x408D,
0.028048150000000,,0x4E1C,
0.028055300000000,,0x7601,
0.028062440000000,,0x1CC9,
0.028069620000000,,0x6F7D,
0.028076780000000,,0x49AF,
0.028083960000000,,0x748F,
0.028091110000000,,0x269C,
0.028098290000000,,0x0F57,
0.028105460000000,,0x0D77,
0.028112640000000,,0x4231,
0.028119780000000,,0x21F3,
0.028126930000000,,0x6841,
0.028134090000000,,0x3604,
0.028141250000000,,0x1453,
0.028148440000000,,0x5215,
0.028155630000000,,0x5EA3,
0.028162800000000,,0x561D,
0.028169980000000,,0x0DBC,
0.028177140000000,,0x1C57,
0.028184300000000,,0x5ECE,
0.028191470000000,,0x3900,
0.028198600000000,,0x45DF,
0.028205770000000,,0x08C0,
0.028212900000000,,0x6930,
0.028220080000000,,0x7E83,
0.028227220000000,,0x21D2,
0.028234410000000,,0x6077,
0.028241550000000,,0x6F65,
0.028248730000000,,0x0D9A,
0.028255920000000,,0x2FC2,
0.028263070000000,,0x164F,
0.028270240000000,,0x3FAF,
0.028277390000000,,0x60CB,
0.028284540000000,,0x4F77,
0.028291700000000,,0x2FEF,
0.028298860000000,,0x3C63,
0.028306010000000,,0x0B68,
0.028313190000000,,0x216B,
0.028320380000000,,0x6ADC,
0.028327560000000,,0x51DD,
0.028334750000000,,0x5372,
0.028341940000000,,0x6111,
0.028349100000000,,0x585A,
0.028356290000000,,0x054B,
0.028363480000000,,0x4E22,
0.028370630000000,,0x01A1,
0.028377780000000,,0x0F05,
0.028384930000000,,0x5901,
0.028392080000000,,0x5C43,
0.028399240000000,,0x5E84,
0.028406400000000,,0x6D05,
0.028413590000000,,0x43AB,
0.028420760000000,,0x73EF,
0.028427900000000,,0x3E41,
0.028435050000000,,0x1172,
0.028442230000000,,0x0CCF,
0.028449370000000,,0x45CA,
0.028456550000000,,0x6662,
0.028463730000000,,0x594D,
0.028470940000000,,0x7F2E,
0.028478080000000,,0x0CCD,
0.028485240000000,,0x54D0,
0.028492430000000,,0x6B4F,
0.028499620000000,,0x0B62,
0.028506800000000,,0x7419,
0.028513970000000,,0x5347,
0.028521150000000,,0x4B4E,
0.028528330000000,,0x749B,
0.028535520000000,,0x40B3,
0.028542680000000,,0x39BC,
0.028549840000000,,0x65CD,
0.028557030000000,,0x2AB5,
0.028564280000000,,0x7A91,
0.028571450000000,,0x63A4,
0.028578610000000,,0x3F16,
0.028585760000000,,0x6A60,
0.028592930000000,,0x71CF,
0.028600080000000,,0x7107,
0.028607210000000,,0x72B0,
0.028614360000000,,0x457D,
0.028621550000000,,0x1B8F,
0.028628710000000,,0x4435,
0.028635880000000,,0x1F0B,
0.028643030000000,,0x7398,
0.028650180000000,,0x0473,
0.028657320000000,,0x0F71,
0.028664470000000,,0x7AA4,
0.028671650000000,,0x49FB,
0.028678820000000,,0x13D7,
0.028686000000000,,0x2F98,
0.028693160000000,,0x0651,
0.028700330000000,,0x156B,
0.028707550000000,,0x5700,
0.028714680000000,,0x66ED,
0.028721870000000,,0x2468,
0.028729050000000,,0x25A7,
0.028736240000000,,0x186E,
0.028743400000000,,0x41FC,
0.028750540000000,,0x069B,
0.028757710000000,,0x4380,
0.028764820000000,,0x2EAB,
0.028772030000000,,0x5EBB,
0.028779210000000,,0x1228,
0.028786380000000,,0x56F1,
0.028793570000000,,0x2C84,
0.028800750000000,,0x6E36,
0.028807930000000,,0x54BC,
0.028815130000000,,0x4899,
0.028822320000000,,0x06DC,
0.028829480000000,,0x3D12,
0.028836650000000,,0x43EF,
0.028843800000000,,0x14EA,
0.028851000000000,,0x58BE,
0.028858180000000,,0x601B,
0.028865320000000,,0x08F5,
0.028872500000000,,0x436F,
0.028879650000000,,0x5242,
0.028886830000000,,0x642A,
0.028894030000000,,0x17E9,
0.028901200000000,,0x0B09,
0.028908370000000,,0x282A,
0.028915570000000,,0x0C52,
0.028922740000000,,0x29A8,
0.028929940000000,,0x5E3D,
0.028937110000000,,0x67AE,
0.028944280000000,,0x7D13,
0.028951440000000,,0x2D07,
0.028958630000000,,0x7092,
0.028965780000000,,0x5F67,
0.028972950000000,,0x362B,
0.028980150000000,,0x6B23,
0.028987330000000,,0x28B4,
0.028994530000000,,0x79A7,
0.029001710000000,,0x1A4C,
0.029008890000000,,0x5BE6,
0.029016060000000,,0x2B3F,
0.029023230000000,,0x6C96,
0.029030420000000,,0x1914,
0.029037590000000,,0x5484,
0.029044790000000,,0x0C17,
0.029051930000000,,0x0266,
0.029059090000000,,0x7D1F,
0.029066240000000,,0x4B5B,
0.029073440000000,,0x5E7F,
0.029080570000000,,0x3385,
0.029087750000000,,0x0C9A,
0.029094930000000,,0x2A1F,
0.029102100000000,,0x69F0,
0.029109220000000,,0x395C,
0.029116390000000,,0x22A9,
0.029123600000000,,0x7639,
0.029130750000000,,0x1C01,
0.029137880000000,,0x288C,
0.029145060000000,,0x3D29,
0.029152250000000,,0x1EF6,
0.029159420000000,,0x1BEB,
0.029166590000000,,0x238B,
0.029173760000000,,0x2603,
0.029180910000000,,0x722F,
0.029188070000000,,0x3805,
0.029195210000000,,0x2EFD,
0.029202390000000,,0x28F9,
0.029209560000000,,0x1601,
0.029216710000000,,0x0DD8,
0.029223870000000,,0x3FAF,
0.029231010000000,,0x248D,
0.029238200000000,,0x0C3C,
0.029245330000000,,0x1B64,
0.029252510000000,,0x5EAE,
0.029259710000000,,0x7C8A,
0.029266880000000,,0x668C,
0.029274050000000,,0x2D29,
0.029281260000000,,0x4329,
0.029288440000000,,0x601B,
0.029295560000000,,0x4CB3,
0.029302750000000,,0x0024,
0.029309880000000,,0x66C9,
0.029317070000000,,0x06E7,
0.029324230000000,,0x600B,
0.029331360000000,,0x4CEE,
0.029338520000000,,0x6FDF,
0.029345670000000,,0x1EA6,
0.029352850000000,,0x1AC1,
0.029360020000000,,0x739F,
0.029367150000000,,0x3FD0,
0.029374290000000,,0x1E91,
0.029381460000000,,0x65C2,
0.029388620000000,,0x1138,
0.029395770000000,,0x1C8C,
0.029402920000000,,0x00F5,
0.029410060000000,,0x29C6,
0.029417250000000,,0x6CF1,
0.029424420000000,,0x673D,
0.029431580000000,,0x6637,
0.029438730000000,,0x3698,
0.029445910000000,,0x70BC,
0.029453060000000,,0x6CDC,
0.029460240000000,,0x0957,
0.029467430000000,,0x11BB,
0.029474610000000,,0x43B3,
0.029481760000000,,0x37DA,
0.029488940000000,,0x650C,
0.029496120000000,,0x21A1,
0.029503290000000,,0x3C37,
0.029510440000000,,0x2876,
0.029517620000000,,0x6B24,
0.029524810000000,,0x5751,
0.029532020000000,,0x2B0C,
0.029539200000000,,0x31A1,
0.029546370000000,,0x61E8,
0.029553500000000,,0x5386,
0.029560680000000,,0x041C,
0.029567810000000,,0x7176,
0.029574990000000,,0x3FEA,
0.029582140000000,,0x0F43,
0.029589290000000,,0x2F1E,
0.029596450000000,,0x3791,
0.029603620000000,,0x7DC2,
0.029610760000000,,0x6208,
0.029617910000000,,0x1A84,
0.029625080000000,,0x5851,
0.029632270000000,,0x1CF2,
0.029639440000000,,0x3264,
0.029646610000000,,0x46AE,
0.029653810000000,,0x0FBA,
0.029660960000000,,0x6084,
0.029668110000000,,0x758D,
0.029675300000000,,0x761D,
0.029682450000000,,0x3E8E,
0.029689610000000,,0x6D20,
0.029696790000000,,0x69A9,
0.029704000000000,,0x30D5,
0.029711200000000,,0x03D6,
0.029718360000000,,0x7ACA,
0.029725560000000,,0x7B37,
0.029732730000000,,0x1344,
0.029739910000000,,0x34BC,
0.029747080000000,,0x1DCE,
0.029754240000000,,0x1545,
0.029761440000000,,0x64BB,
0.029768620000000,,0x5991,
0.029775800000000,,0x5EF0,
0.029782940000000,,0x4EA0,
0.029790120000000,,0x5613,
0.029797310000000,,0x3EBC,
0.029804470000000,,0x7CDC,
0.029811620000000,,0x5488,
0.029818810000000,,0x6A4B,
0.029826030000000,,0x2C8B,
0.029833230000000,,0x11FD,
0.029840380000000,,0x71EA,
0.029847530000000,,0x1F43,
0.029854680000000,,0x72C1,
0.029861830000000,,0x4C61,
0.029868980000000,,0x12FA,
0.029876160000000,,0x442F,
0.029883330000000,,0x0E62,
0.029890480000000,,0x66B3,
0.029897680000000,,0x5204,
0.029904840000000,,0x5673,
0.029912030000000,,0x3F70,
0.029919170000000,,0x1CC4,
0.029926320000000,,0x45EA,
0.029933520000000,,0x229F,
0.029940690000000,,0x45F1,
0.029947830000000,,0x3B7B,
0.029955010000000,,0x564C,
0.029962200000000,,0x041B,
0.029969340000000,,0x4AD5,
0.029976560000000,,0x2E0A,
0.029983740000000,,0x1025,
0.029990910000000,,0x77DD,
0.029998060000000,,0x38CA,
0.030005240000000,,0x52AF,
0.030012460000000,,0x4D9F,
0.030019610000000,,0x631E,
0.030026750000000,,0x686C,
0.030033920000000,,0x1C28,
0.030041080000000,,0x2094,
0.030048250000000,,0x13B5,
0.030055440000000,,0x7B08,
0.030062580000000,,0x282F,
0.030069750000000,,0x62AD,
0.030076940000000,,0x762E,
0.030084100000000,,0x27FF,
0.030091220000000,,0x5697,
0.030098420000000,,0x5A20,
0.030105580000000,,0x5A13,
0.030112770000000,,0x0724,
0.030119930000000,,0x7FD8,
0.030127060000000,,0x78DA,
0.030134240000000,,0x70D1,
0.030141400000000,,0x03C1,
0.030148540000000,,0x4134,
0.030155690000000,,0x052C,
0.030162860000000,,0x744D,
0.030170050000000,,0x7059,
0.030177210000000,,0x0101,
0.030184330000000,,0x4916,
0.030191510000000,,0x3A62,
0.030198690000000,,0x5B6F,
0.030205880000000,,0x6534,
0.030213060000000,,0x2169,
0.030220260000000,,0x7BC6,
0.030227400000000,,0x5CF0,
0.030234550000000,,0x015D,
0.030241720000000,,0x6A26,
0.030248900000000,,0x07D0,
0.030256030000000,,0x1AD5,
0.030263240000000,,0x51F6,
0.030270410000000,,0x4A70,
0.030277580000000,,0x42A0,
0.030284760000000,,0x6F8B,
0.030291930000000,,0x3DB8,
0.030299090000000,,0x508E,
0.030306270000000,,0x4E12,
0.030313440000000,,0x4501,
0.030320610000000,,0x7C42,
0.030327740000000,,0x653B,
0.030334940000000,,0x1AE4,
0.030342110000000,,0x1DDB,
0.030349280000000,,0x3FA1,
0.030356440000000,,0x178D,
0.030363610000000,,0x6CB7,
0.030370790000000,,0x1122,
0.030377970000000,,0x0DE5,
0.030385140000000,,0x15DE,
0.030392320000000,,0x7FB1,
0.030399470000000,,0x35F3,
0.030406640000000,,0x22E9,
0.030413840000000,,0x3308,
0.030421000000000,,0x60A5,
0.030428180000000,,0x7DBB,
0.030435350000000,,0x2F7C,
0.030442500000000,,0x2747,
0.030449670000000,,0x10F7,
0.030456830000000,,0x2145,
0.030464020000000,,0x5967,
0.030471200000000,,0x6EA1,
0.030478370000000,,0x29EA,
0.030485570000000,,0x0A16,
0.030492740000000,,0x1627,
0.030499910000000,,0x7A0B,
0.030507060000000,,0x3465,
0.030514260000000,,0x16A9,
0.030521480000000,,0x4BE5,
0.030528650000000,,0x2B31,
0.030535850000000,,0x5F96,
0.030543020000000,,0x799F,
0.030550170000000,,0x5EC2,
0.030557330000000,,0x5F5C,
0.030564500000000,,0x6B32,
0.030571700000000,,0x6422,
0.030578870000000,,0x5381,
0.030586040000000,,0x3FBF,
0.030593170000000,,0x6096,
0.030600330000000,,0x208C,
0.030607480000000,,0x5780,
0.030614630000000,,0x2045,
0.030621790000000,,0x18FC,
0.030628920000000,,0x5255,
0.030636160000000,,0x1B92,
0.030643340000000,,0x2AB9,
0.030650550000000,,0x588B,
0.030657720000000,,0x0E02,
0.030664860000000,,0x677F,
0.030672000000000,,0x321C,
0.030679160000000,,0x4711,
0.030686330000000,,0x77A4,
0.030693490000000,,0x75BE,
0.030700660000000,,0x6F6C,
0.030707840000000,,0x0539,
0.030715010000000,,0x5EA9,
0.030722200000000,,0x036F,
0.030729360000000,,0x3427,
0.030736540000000,,0x06C4,
0.030743700000000,,0x7927,
0.030750870000000,,0x18A2,
0.030758050000000,,0x2439,
0.030765220000000,,0x6846,
0.030772380000000,,0x0DA7,
0.030779550000000,,0x05B3,
0.030786730000000,,0x4D73,
0.030793900000000,,0x0660,
0.030801030000000,,0x5946,
0.030808230000000,,0x22D1,
0.030815420000000,,0x33C0,
0.030822560000000,,0x2754,
0.030829760000000,,0x093D,
0.030836920000000,,0x4505,
0.030844090000000,,0x1A30,
0.030851250000000,,0x3C2B,
0.030858420000000,,0x0A31,
0.030865590000000,,0x6979,
0.030872760000000,,0x7757,
0.030879940000000,,0x6F56,
0.030887120000000,,0x14EB,
0.030894310000000,,0x1475,
0.030901500000000,,0x25C6,
0.030908680000000,,0x5569,
0.030915910000000,,0x6439,
0.030923060000000,,0x4A65,
0.030930260000000,,0x2C02,
0.030937420000000,,0x5FF6,
0.030944570000000,,0x3C15,
0.030951740000000,,0x7D91,
0.030958890000000,,0x7AB5,
0.030966080000000,,0x412B,
0.030973260000000,,0x7ABA,
0.030980440000000,,0x3EE0,
0.030987570000000,,0x5FEC,
0.030994730000000,,0x693A,
0.031001920000000,,0x2BF1,
0.031009090000000,,0x1849,
0.031016260000000,,0x7AE4,
0.031023420000000,,0x488C,
0.031030590000000,,0x2C38,
0.031037740000000,,0x4E24,
0.031044920000000,,0x76C9,
0.031052110000000,,0x5B38,
0.031059270000000,,0x1BFB,
0.031066420000000,,0x23D6,
0.031073610000000,,0x49F8,
0.031080760000000,,0x0A40,
0.031087920000000,,0x2423,
0.031095080000000,,0x3D69,
0.031102280000000,,0x5BC7,
0.031109440000000,,0x674F,
0.031116600000000,,0x76BC,
0.031123750000000,,0x3456,
0.031130950000000,,0x4B9E,
0.031138120000000,,0x3319,
0.031145290000000,,0x2C33,
0.031152470000000,,0x579D,
0.031159640000000,,0x0A8F,
0.031166820000000,,0x1C37,
0.031173970000000,,0x1B44,
0.031181140000000,,0x1A53,
0.031188340000000,,0x6036,
0.031195480000000,,0x22D9,
0.031202670000000,,0x77A8,
0.031209830000000,,0x13E2,
0.031216970000000,,0x4181,
0.031224120000000,,0x69DB,
0.031231290000000,,0x6418,
0.031238430000000,,0x4253,
0.031245620000000,,0x7563,
0.031252790000000,,0x463F,
0.031259920000000,,0x41C2,
0.031267060000000,,0x357D,
0.031274250000000,,0x1307,
0.031281400000000,,0x2C5C,
0.031288580000000,,0x299A,
0.031295780000000,,0x4FC1,
0.031302920000000,,0x5A8F,
0.031310100000000,,0x278D,
0.031317270000000,,0x025A,
0.031324450000000,,0x1BA5,
0.031331640000000,,0x55BA,
0.031338840000000,,0x3A2C,
0.031346020000000,,0x2D5E,
0.031353220000000,,0x791B,
0.031360390000000,,0x7E18,
0.031367500000000,,0x3AD8,
0.031374680000000,,0x0C15,
0.031381850000000,,0x137C,
0.031389000000000,,0x7032,
0.031396150000000,,0x1974,
0.031403330000000,,0x5548,
0.031410540000000,,0x6C0F,
0.031417690000000,,0x1304,
0.031424850000000,,0x35CB,
0.031432040000000,,0x2221,
0.031439210000000,,0x74F9,
0.031446360000000,,0x1423,
0.031453530000000,,0x17C2,
0.031460690000000,,0x120B,
0.031467860000000,,0x0B9B,
0.031475030000000,,0x3B83,
0.031482190000000,,0x115B,
0.031489380000000,,0x4091,
0.031496530000000,,0x281D,
0.031503700000000,,0x3717,
0.031510880000000,,0x0844,
0.031518040000000,,0x49EA,
0.031525230000000,,0x1B07,
0.031532380000000,,0x46F5,
0.031539550000000,,0x1729,
0.031546750000000,,0x4CD6,
0.031553940000000,,0x2B51,
0.031561150000000,,0x1A1C,
0.031568310000000,,0x5ACC,
0.031575510000000,,0x7B2B,
0.031582700000000,,0x7545,
0.031589890000000,,0x75AA,
0.031597100000000,,0x0943,
0.031604260000000,,0x33D2,
0.031611450000000,,0x3613,
0.031618620000000,,0x6BEB,
0.031625790000000,,0x6F45,
0.031632960000000,,0x0D21,
0.031640140000000,,0x7035,
0.031647300000000,,0x6691,
0.031654470000000,,0x07E3,
0.031661600000000,,0x47E2,
0.031668730000000,,0x290A,
0.031675920000000,,0x4D72,
0.031683120000000,,0x4AAB,
0.031690350000000,,0x1C9B,
0.031697530000000,,0x7F4D,
0.031704680000000,,0x1496,
0.031711890000000,,0x3F73,
0.031719040000000,,0x4115,
0.031726210000000,,0x0D1A,
0.031733390000000,,0x2D2C,
0.031740580000000,,0x6990,
0.031747760000000,,0x7CD6,
0.031754940000000,,0x01FA,
0.031762060000000,,0x53D0,
0.031769230000000,,0x3618,
0.031776380000000,,0x3614,
0.031783560000000,,0x5048,
0.031790740000000,,0x7EA5,
0.031797930000000,,0x1247,
0.031805100000000,,0x28F6,
0.031812280000000,,0x69CA,
0.031819470000000,,0x288E,
0.031826650000000,,0x6875,
0.031833840000000,,0x5090,
0.031841000000000,,0x7D4F,
0.031848170000000,,0x4A71,
0.031855340000000,,0x0E6B,
0.031862510000000,,0x2A56,
0.031869730000000,,0x6024,
0.031876880000000,,0x77D8,
0.031884040000000,,0x5635,
0.031891250000000,,0x0D29,
0.031898440000000,,0x345D,
0.031905650000000,,0x5227,
0.031912830000000,,0x4F5F,
0.031919980000000,,0x6B3C,
0.031927130000000,,0x5722,
0.031934320000000,,0x330A,
0.031941500000000,,0x35F9,
0.031948670000000,,0x33DD,
0.031955840000000,,0x49D8,
0.031963010000000,,0x4EBD,
0.031970210000000,,0x389F,
0.031977360000000,,0x793C,
0.031984500000000,,0x0146,
0.031991650000000,,0x3784,
0.031998800000000,,0x5726,
0.032006000000000,,0x113E,
0.032013150000000,,0x2FA2,
0.032020320000000,,0x1783,
0.032027470000000,,0x5FB7,
0.032034630000000,,0x71A9,
0.032041790000000,,0x07A3,
0.032048950000000,,0x4695,
0.032056140000000,,0x16E5,
0.032063340000000,,0x2CCE,
0.032070530000000,,0x3A33,
0.032077690000000,,0x52C8,
0.032084880000000,,0x33B6,
0.032092060000000,,0x51AD,
0.032099270000000,,0x52E3,
0.032106440000000,,0x6EF2,
0.032113610000000,,0x3157,
0.032120800000000,,0x51B9,
0.032127970000000,,0x34CC,
0.032135160000000,,0x5819,
0.032142330000000,,0x59ED,
0.032149500000000,,0x393D,
0.032156680000000,,0x6FAE,
0.032163840000000,,0x53FC,
0.032170990000000,,0x50FF,
0.032178130000000,,0x470E,
0.032185270000000,,0x4C74,
0.032192440000000,,0x7C58,
0.032199590000000,,0x7452,
0.032206790000000,,0x0FCF,
0.032213910000000,,0x4BAC,
0.032221100000000,,0x66A3,
0.032228280000000,,0x5259,
0.032235480000000,,0x3988,
0.032242640000000,,0x471F,
0.032249790000000,,0x00E2,
0.032256920000000,,0x567E,
0.032264100000000,,0x51A1,
0.032271290000000,,0x34BF,
0.032278470000000,,0x401F,
0.032285580000000,,0x5DB5,
0.032292780000000,,0x6B08,
0.032299940000000,,0x75F0,
0.032307080000000,,0x195D,
0.032314270000000,,0x1916,
0.032321460000000,,0x01D8,
0.032328590000000,,0x4271,
0.032335760000000,,0x64C2,
0.032342910000000,,0x14E5,
0.032350110000000,,0x6333,
0.032357260000000,,0x0606,
0.032364390000000,,0x6BA4,
0.032371590000000,,0x55BF,
0.032378780000000,,0x54D3,
0.032385970000000,,0x72D8,
0.032393140000000,,0x00D9,
0.032400280000000,,0x4F21,
0.032407430000000,,0x1DEB,
0.032414610000000,,0x7B01,
0.032421740000000,,0x64CA,
0.032428920000000,,0x508D,
0.032436110000000,,0x5785,
0.032443280000000,,0x4EBA,
0.032450460000000,,0x477A,
0.032457640000000,,0x2B97,
0.032464820000000,,0x2AAB,
0.032472060000000,,0x0D8A,
0.032479240000000,,0x2F9F,
0.032486390000000,,0x79B4,
0.032493550000000,,0x47C0,
0.032500670000000,,0x7CED,
0.032507840000000,,0x5CE3,
0.032515000000000,,0x5CD1,
0.032522170000000,,0x4D2D,
0.032529380000000,,0x700C,
0.032536490000000,,0x2A92,
0.032543700000000,,0x05CF,
0.032550850000000,,0x6EF8,
0.032557990000000,,0x6425,
0.032565180000000,,0x6822,
0.032572340000000,,0x2E5F,
0.032579510000000,,0x7FF0,
0.032586590000000,,0x784F,
0.032593740000000,,0x58DB,
0.032600910000000,,0x0F28,
0.032608070000000,,0x376B,
0.032615270000000,,0x2BCF,
0.032622450000000,,0x2BAF,
0.032629650000000,,0x2A63,
0.032636840000000,,0x4A7B,
0.032644010000000,,0x5B19,
0.032651190000000,,0x13CD,
0.032658370000000,,0x7AB7,
0.032665540000000,,0x5031,
0.032672700000000,,0x7797,
0.032679850000000,,0x6CCF,
0.032687000000000,,0x54DB,
0.032694200000000,,0x36B0,
0.032701380000000,,0x346F,
0.032708550000000,,0x079D,
0.032715710000000,,0x3135,
0.032722900000000,,0x0529,
0.032730100000000,,0x1AB2,
0.032737310000000,,0x2FDF,
0.032744450000000,,0x78C3,
0.032751590000000,,0x782F,
0.032758710000000,,0x1D51,
0.032765910000000,,0x2C7B,
0.032773090000000,,0x1282,
0.032780270000000,,0x01D6,
0.032787430000000,,0x3537,
0.032794620000000,,0x4702,
0.032801750000000,,0x2A28,
0.032808940000000,,0x52B5,
0.032816180000000,,0x18B0,
0.032823330000000,,0x357E,
0.032830500000000,,0x0A90,
0.032837680000000,,0x27E7,
0.032844820000000,,0x12A2,
0.032852030000000,,0x016D,
0.032859190000000,,0x6AC0,
0.032866350000000,,0x37DC,
0.032873520000000,,0x1264,
0.032880690000000,,0x759C,
0.032887870000000,,0x7ECD,
0.032895040000000,,0x57E3,
0.032902200000000,,0x7C58,
0.032909330000000,,0x3014,
0.032916480000000,,0x4C84,
0.032923660000000,,0x7F27,
0.032930800000000,,0x046E,
0.032937960000000,,0x25BB,
0.032945160000000,,0x7E6F,
0.032952280000000,,0x00EA,
0.032959440000000,,0x1216,
0.032966620000000,,0x6517,
0.032973810000000,,0x7C03,
0.032980920000000,,0x6CC1,
0.032988070000000,,0x239D,
0.032995250000000,,0x1570,
0.033002430000000,,0x0AA2,
0.033009620000000,,0x361B,
0.033016790000000,,0x2F83,
0.033023940000000,,0x5BF3,
0.033031110000000,,0x459D,
0.033038280000000,,0x5CEB,
0.033045460000000,,0x18B9,
0.033052640000000,,0x799B,
0.033059790000000,,0x38B0,
0.033066950000000,,0x064C,
0.033074110000000,,0x7BE7,
0.033081250000000,,0x1080,
0.033088390000000,,0x1B77,
0.033095560000000,,0x4764,
0.033102720000000,,0x18CA,
0.033109900000000,,0x25DB,
0.033117090000000,,0x7FA3,
0.033124220000000,,0x60F2,
0.033131360000000,,0x0374,
0.033138510000000,,0x2DC3,
0.033145680000000,,0x1579,
0.033152880000000,,0x4647,
0.033160030000000,,0x043B,
0.033167190000000,,0x0E28,
0.033174340000000,,0x32B6,
