Time [s],Packet ID,MOSI,MISO
0.000000060000000,,0x61D2,
0.000006560000000,,0x4254,
0.000013070000000,,0x4EC0,
0.000019570000000,,0x57DF,
0.000026070000000,,0x5EA4,
0.000032580000000,,0x6DBE,
0.000039080000000,,0x1C5C,
0.000045590000000,,0x0331,
0.000052090000000,,0x060D,
0.000058600000000,,0x365B,
0.000065100000000,,0x6AB2,
0.000071600000000,,0x2757,
0.000078110000000,,0x10AA,
0.000084610000000,,0x4EBE,
0.000091120000000,,0x2108,
0.000097620000000,,0x7287,
0.000104120000000,,0x3A7E,
0.000110630000000,,0x7928,
0.000117130000000,,0x6769,
0.000123640000000,,0x016F,
0.000130140000000,,0x3F9C,
0.000136640000000,,0x79BA,
0.000143150000000,,0x74C0,
0.000149650000000,,0x1C66,
0.000156160000000,,0x56A5,
0.000162660000000,,0x0F9A,
0.000169160000000,,0x2479,
0.000175670000000,,0x6931,
0.000182170000000,,0x3248,
0.000188680000000,,0x640F,
0.000195180000000,,0x3DEB,
0.000201680000000,,0x4833,
0.000208190000000,,0x15BD,
0.000214690000000,,0x67EA,
0.000221200000000,,0x5E50,
0.000227700000000,,0x08B3,
0.000234200000000,,0x3570,
0.000240710000000,,0x3990,
0.000247210000000,,0x476C,
0.000253720000000,,0x18E4,
0.000260220000000,,0x5226,
0.000266730000000,,0x0394,
0.000273230000000,,0x2EE1,
0.000279730000000,,0x0ABE,
0.000286240000000,,0x145C,
0.000292740000000,,0x2DDE,
0.000299250000000,,0x7BF5,
0.000305750000000,,0x01C7,
0.000312260000000,,0x79A1,
0.000318760000000,,0x6D24,
0.000325260000000,,0x0FDB,
0.000331770000000,,0x69C5,
0.000338270000000,,0x1303,
0.000344780000000,,0x0E68,
0.000351280000000,,0x33C1,
0.000357790000000,,0x6B9F,
0.000364290000000,,0x4CE0,
0.000370790000000,,0x1899,
0.000377300000000,,0x3D66,
0.000383800000000,,0x240C,
0.000390310000000,,0x4219,
0.000396810000000,,0x2166,
0.000403320000000,,0x404B,
0.000409820000000,,0x3AED,
0.000416320000000,,0x620C,
0.000422830000000,,0x7CF6,
0.000429330000000,,0x0141,
0.000435840000000,,0x0C27,
0.000442340000000,,0x46C6,
0.000448850000000,,0x0E58,
0.000455350000000,,0x7761,
0.000461850000000,,0x18D8,
0.000468360000000,,0x70DA,
0.000474860000000,,0x5E3E,
0.000481370000000,,0x7E39,
0.000487870000000,,0x76A8,
0.000494380000000,,0x163F,
0.000500880000000,,0x3E3E,
0.000507380000000,,0x6F28,
0.000513890000000,,0x267A,
0.000520390000000,,0x7B1D,
0.000526900000000,,0x468D,
0.000533400000000,,0x52D0,
0.000539910000000,,0x7783,
0.000546410000000,,0x0AE0,
0.000552920000000,,0x6230,
0.000559420000000,,0x5E0A,
0.000565920000000,,0x5CEB,
0.000572430000000,,0x5CFF,
0.000578930000000,,0x3AD0,
0.000585440000000,,0x0C3B,
0.000591940000000,,0x6481,
0.000598450000000,,0x0C05,
0.000604950000000,,0x5767,
0.000611460000000,,0x5C82,
0.000617960000000,,0x5590,
0.000624460000000,,0x2BA3,
0.000630970000000,,0x0879,
0.000637470000000,,0x27DD,
0.000643980000000,,0x0370,
0.000650480000000,,0x4BB1,
0.000656990000000,,0x4C69,
0.000663490000000,,0x5692,
0.000670000000000,,0x7099,
0.000676500000000,,0x46DE,
0.000683000000000,,0x4A6D,
0.000689510000000,,0x2C2C,
0.000696010000000,,0x280B,
0.000702520000000,,0x4022,
0.000709020000000,,0x3382,
0.000715530000000,,0x737F,
0.000722030000000,,0x78B4,
0.000728540000000,,0x421D,
0.000735040000000,,0x0352,
0.000741550000000,,0x5A10,
0.000748050000000,,0x1EB3,
0.000754560000000,,0x7463,
0.000761060000000,,0x43E2,
0.000767560000000,,0x3E7D,
0.000774070000000,,0x338E,
0.000780570000000,,0x5165,
0.000787080000000,,0x1512,
0.000793580000000,,0x1A74,
0.000800090000000,,0x5B2E,
0.000806590000000,,0x6CCE,
0.000813100000000,,0x1810,
0.000819600000000,,0x736D,
0.000826100000000,,0x69F3,
0.000832610000000,,0x20CB,
0.000839110000000,,0x2912,
0.000845620000000,,0x4D01,
0.000852120000000,,0x52AD,
0.000858630000000,,0x18C3,
0.000865130000000,,0x2D78,
0.000871640000000,,0x0EC8,
0.000878140000000,,0x75D2,
0.000884650000000,,0x08FC,
0.000891150000000,,0x4BCC,
0.000897660000000,,0x2329,
0.000904160000000,,0x710A,
0.000910660000000,,0x1C61,
0.000917170000000,,0x6D06,
0.000923670000000,,0x1E7A,
0.000930180000000,,0x3B1F,
0.000936680000000,,0x31F2,
0.000943190000000,,0x3D13,
0.000949690000000,,0x4B62,
0.000956200000000,,0x127C,
0.000962700000000,,0x31A9,
0.000969210000000,,0x2580,
0.000975710000000,,0x6730,
0.000982220000000,,0x4CA0,
0.000988720000000,,0x5DA8,
0.000995230000000,,0x41C2,
0.001001730000000,,0x713B,
0.001008230000000,,0x504C,
0.001014740000000,,0x18D7,
0.001021240000000,,0x4B57,
0.001027750000000,,0x3823,
0.001034250000000,,0x1D68,
0.001040760000000,,0x6078,
0.001047260000000,,0x10AE,
0.001053770000000,,0x28CC,
0.001060270000000,,0x7818,
0.001066780000000,,0x6252,
0.001073280000000,,0x4EDC,
0.001079790000000,,0x31DE,
0.001086290000000,,0x1FB2,
0.001092800000000,,0x7933,
0.001099300000000,,0x3ACB,
0.001105800000000,,0x5199,
0.001112310000000,,0x3477,
0.001118810000000,,0x07EE,
0.001125320000000,,0x2933,
0.001131820000000,,0x0171,
0.001138330000000,,0x4887,
0.001144830000000,,0x3581,
0.001151340000000,,0x3262,
0.001157840000000,,0x31C6,
0.001164350000000,,0x5B87,
0.001170850000000,,0x227E,
0.001177360000000,,0x0A18,
0.001183860000000,,0x6161,
0.001190370000000,,0x59CB,
0.001196870000000,,0x0AA8,
0.001203380000000,,0x272F,
0.001209880000000,,0x5553,
0.001216380000000,,0x75EB,
0.001222890000000,,0x00B9,
0.001229390000000,,0x0AAB,
0.001235900000000,,0x3EB8,
0.001242400000000,,0x5EE8,
0.001248910000000,,0x4ED3,
0.001255410000000,,0x4E15,
0.001261920000000,,0x3AE4,
0.001268420000000,,0x2EE9,
0.001274920000000,,0x4ED6,
0.001281430000000,,0x20EA,
0.001287930000000,,0x6562,
0.001294440000000,,0x572B,
0.001300940000000,,0x7FEF,
0.001307450000000,,0x07D9,
0.001313950000000,,0x1276,
0.001320450000000,,0x209D,
0.001326960000000,,0x5F50,
0.001333460000000,,0x4928,
0.001339970000000,,0x0984,
0.001346470000000,,0x0BE8,
0.001352980000000,,0x67C3,
0.001359480000000,,0x5648,
0.001365980000000,,0x262F,
0.001372490000000,,0x508E,
0.001378990000000,,0x0A54,
0.001385500000000,,0x064A,
0.001392000000000,,0x48C9,
0.001398510000000,,0x07F6,
0.001405010000000,,0x6D06,
0.001411510000000,,0x5A3C,
0.001418020000000,,0x7854,
0.001424520000000,,0x0579,
0.001431030000000,,0x5FDE,
0.001437530000000,,0x3C80,
0.001444040000000,,0x559B,
0.001450540000000,,0x765C,
0.001457040000000,,0x3774,
0.001463550000000,,0x5459,
0.001470050000000,,0x6102,
0.001476560000000,,0x05D6,
0.001483060000000,,0x2240,
0.001489570000000,,0x39FE,
0.001496070000000,,0x31E6,
0.001502580000000,,0x5B3C,
0.001509080000000,,0x7D89,
0.001515580000000,,0x7AC6,
0.001522090000000,,0x592D,
0.001528590000000,,0x7EE2,
0.001535100000000,,0x6CD5,
0.001541600000000,,0x45B2,
0.001548110000000,,0x239B,
0.001554610000000,,0x6218,
0.001561110000000,,0x5E9F,
0.001567620000000,,0x74E1,
0.001574120000000,,0x5016,
0.001580630000000,,0x4C8F,
0.001587130000000,,0x22D8,
0.001593640000000,,0x3B63,
0.001600140000000,,0x563F,
0.001606650000000,,0x1C1D,
0.001613150000000,,0x4E8D,
0.001619660000000,,0x7C3F,
0.001626160000000,,0x0A7B,
0.001632660000000,,0x3D7C,
0.001639170000000,,0x7123,
0.001645670000000,,0x1479,
0.001652180000000,,0x439A,
0.001658680000000,,0x7B84,
0.001665190000000,,0x08DB,
0.001671690000000,,0x70D4,
0.001678200000000,,0x6D3E,
0.001684700000000,,0x1EB2,
0.001691200000000,,0x7CEE,
0.001697710000000,,0x4574,
0.001704210000000,,0x576A,
0.001710720000000,,0x7615,
0.001717220000000,,0x3EA0,
0.001723720000000,,0x1ADD,
0.001730230000000,,0x159E,
0.001736730000000,,0x7EC6,
0.001743240000000,,0x0A1C,
0.001749740000000,,0x4355,
0.001756240000000,,0x4390,
0.001762750000000,,0x2EF6,
0.001769250000000,,0x3140,
0.001775760000000,,0x6A47,
0.001782260000000,,0x4AD7,
0.001788770000000,,0x3F10,
0.001795270000000,,0x1D08,
0.001801770000000,,0x25F2,
0.001808280000000,,0x33FD,
0.001814780000000,,0x0D25,
0.001821290000000,,0x5201,
0.001827790000000,,0x7CCA,
0.001834300000000,,0x23BD,
0.001840800000000,,0x518D,
0.001847300000000,,0x161E,
0.001853810000000,,0x724E,
0.001860310000000,,0x7502,
0.001866820000000,,0x0B38,
0.001873320000000,,0x6407,
0.001879830000000,,0x7983,
0.001886330000000,,0x7C85,
0.001892840000000,,0x5D01,
0.001899340000000,,0x4B34,
0.001905850000000,,0x2078,
0.001912350000000,,0x76CB,
0.001918860000000,,0x4A22,
0.001925360000000,,0x16D6,
0.001931870000000,,0x71F9,
0.001938370000000,,0x42CF,
0.001944870000000,,0x55CA,
0.001951380000000,,0x3BBD,
0.001957880000000,,0x22BD,
0.001964390000000,,0x1016,
0.001970890000000,,0x2AEA,
0.001977400000000,,0x4036,
0.001983900000000,,0x55AD,
0.001990410000000,,0x4594,
0.001996910000000,,0x100E,
0.002003410000000,,0x2A99,
0.002009920000000,,0x5830,
0.002016420000000,,0x51F5,
0.002022930000000,,0x17A1,
0.002029430000000,,0x0A50,
0.002035940000000,,0x6038,
0.002042440000000,,0x11D9,
0.002048950000000,,0x1723,
0.002055450000000,,0x19A4,
0.002061960000000,,0x12CA,
0.002068460000000,,0x008F,
0.002074970000000,,0x7D25,
0.002081470000000,,0x5A89,
0.002087970000000,,0x14A3,
0.002094480000000,,0x152C,
0.002100980000000,,0x6DD4,
0.002107490000000,,0x48E2,
0.002113990000000,,0x5AB2,
0.002120500000000,,0x0DFC,
0.002127000000000,,0x5966,
0.002133500000000,,0x226A,
0.002140010000000,,0x6C37,
0.002146510000000,,0x578A,
0.002153020000000,,0x3171,
0.002159520000000,,0x622C,
0.002166030000000,,0x7C4D,
0.002172530000000,,0x5EB6,
0.002179030000000,,0x7CF9,
0.002185540000000,,0x7E8A,
0.002192040000000,,0x2971,
0.002198550000000,,0x111C,
0.002205050000000,,0x7A45,
0.002211560000000,,0x0612,
0.002218060000000,,0x49CD,
0.002224570000000,,0x201F,
0.002231070000000,,0x08E2,
0.002237580000000,,0x7891,
0.002244080000000,,0x2C59,
0.002250580000000,,0x0323,
0.002257090000000,,0x530C,
0.002263590000000,,0x17C6,
0.002270100000000,,0x7479,
0.002276600000000,,0x528B,
0.002283110000000,,0x2B56,
0.002289610000000,,0x65F9,
0.002296120000000,,0x0867,
0.002302620000000,,0x50C6,
0.002309130000000,,0x4F4B,
0.002315630000000,,0x0D13,
0.002322130000000,,0x61C9,
0.002328640000000,,0x5BB0,
0.002335140000000,,0x5D7D,
0.002341650000000,,0x68BF,
0.002348150000000,,0x423D,
0.002354660000000,,0x47AF,
0.002361160000000,,0x46AC,
0.002367670000000,,0x5AE6,
0.002374170000000,,0x2EE2,
0.002380670000000,,0x1329,
0.002387180000000,,0x1FE7,
0.002393680000000,,0x16E6,
0.002400190000000,,0x3559,
0.002406690000000,,0x3188,
0.002413200000000,,0x69F0,
0.002419700000000,,0x7D1A,
0.002426210000000,,0x61E2,
0.002432710000000,,0x42B2,
0.002439220000000,,0x7ECC,
0.002445720000000,,0x5F6E,
0.002452220000000,,0x7ACE,
0.002458730000000,,0x5903,
0.002465230000000,,0x091F,
0.002471740000000,,0x10E2,
0.002478240000000,,0x0BA1,
0.002484750000000,,0x2A51,
0.002491250000000,,0x5B87,
0.002497760000000,,0x6638,
0.002504260000000,,0x4953,
0.002510770000000,,0x55EA,
0.002517270000000,,0x3B06,
0.002523780000000,,0x7D4A,
0.002530280000000,,0x60C8,
0.002536790000000,,0x12A6,
0.002543290000000,,0x671F,
0.002549790000000,,0x33D0,
0.002556300000000,,0x2709,
0.002562800000000,,0x66C6,
0.002569310000000,,0x3D6A,
0.002575810000000,,0x0616,
0.002582320000000,,0x2FBF,
0.002588820000000,,0x790F,
0.002595330000000,,0x1837,
0.002601830000000,,0x0C33,
0.002608340000000,,0x64AF,
0.002614840000000,,0x7BF8,
0.002621350000000,,0x2B50,
0.002627850000000,,0x1291,
0.002634360000000,,0x5C5A,
0.002640860000000,,0x123C,
0.002647370000000,,0x30DE,
0.002653870000000,,0x1A6F,
0.002660380000000,,0x068C,
0.002666880000000,,0x3C38,
0.002673390000000,,0x13FB,
0.002679890000000,,0x0D39,
0.002686400000000,,0x3400,
0.002692900000000,,0x3DDC,
0.002699410000000,,0x3730,
0.002705910000000,,0x771A,
0.002712420000000,,0x44B6,
0.002718920000000,,0x4034,
0.002725430000000,,0x44B7,
0.002731930000000,,0x48B9,
0.002738430000000,,0x4221,
0.002744940000000,,0x21AE,
0.002751440000000,,0x07BA,
0.002757950000000,,0x4E6B,
0.002764450000000,,0x0875,
0.002770960000000,,0x4181,
0.002777460000000,,0x2D9D,
0.002783970000000,,0x2753,
0.002790470000000,,0x76D8,
0.002796980000000,,0x17AE,
0.002803480000000,,0x31DD,
0.002809990000000,,0x0625,
0.002816490000000,,0x7288,
0.002823000000000,,0x01F3,
0.002829500000000,,0x1F35,
0.002836010000000,,0x0438,
0.002842510000000,,0x17BF,
0.002849010000000,,0x390D,
0.002855520000000,,0x6F48,
0.002862020000000,,0x63F0,
0.002868530000000,,0x584E,
0.002875030000000,,0x6364,
0.002881540000000,,0x78C9,
0.002888040000000,,0x691B,
0.002894540000000,,0x6781,
0.002901050000000,,0x0263,
0.002907550000000,,0x57A6,
0.002914060000000,,0x5796,
0.002920560000000,,0x1336,
0.002927070000000,,0x6071,
0.002933570000000,,0x5C4B,
0.002940070000000,,0x1AEC,
0.002946580000000,,0x59B3,
0.002953080000000,,0x0B17,
0.002959590000000,,0x5F31,
0.002966090000000,,0x4069,
0.002972590000000,,0x6F0A,
0.002979100000000,,0x739D,
0.002985600000000,,0x6A8C,
0.002992110000000,,0x50F7,
0.002998610000000,,0x0366,
0.003005120000000,,0x78C2,
0.003011620000000,,0x34E4,
0.003018120000000,,0x588C,
0.003024630000000,,0x71E7,
0.003031130000000,,0x35D4,
0.003037640000000,,0x19F1,
0.003044140000000,,0x7D1F,
0.003050640000000,,0x0F1D,
0.003057150000000,,0x1D34,
0.003063650000000,,0x070E,
0.003070160000000,,0x6E57,
0.003076660000000,,0x5DFD,
0.003083170000000,,0x2E17,
0.003089670000000,,0x7EA9,
0.003096170000000,,0x305D,
0.003102680000000,,0x4550,
0.003109180000000,,0x31A3,
0.003115690000000,,0x70F2,
0.003122190000000,,0x5EAB,
0.003128700000000,,0x5633,
0.003135200000000,,0x7A41,
0.003141710000000,,0x6060,
0.003148210000000,,0x10DD,
0.003154710000000,,0x30CA,
0.003161220000000,,0x7C40,
0.003167720000000,,0x3067,
0.003174230000000,,0x5482,
0.003180730000000,,0x7B7F,
0.003187240000000,,0x565B,
0.003193740000000,,0x3FE5,
0.003200240000000,,0x34CE,
0.003206750000000,,0x4903,
0.003213250000000,,0x54C0,
0.003219760000000,,0x6B12,
0.003226260000000,,0x6499,
0.003232760000000,,0x0C76,
0.003239270000000,,0x4F61,
0.003245770000000,,0x58DA,
0.003252280000000,,0x07A5,
0.003258780000000,,0x31FD,
0.003265290000000,,0x42D8,
0.003271790000000,,0x6E34,
0.003278290000000,,0x45A6,
0.003284800000000,,0x45B4,
0.003291300000000,,0x54F3,
0.003297810000000,,0x3625,
0.003304310000000,,0x1C65,
0.003310810000000,,0x0B74,
0.003317320000000,,0x476A,
0.003323820000000,,0x2BCA,
0.003330320000000,,0x4550,
0.003336830000000,,0x75E5,
0.003343330000000,,0x33B9,
0.003349840000000,,0x6A20,
0.003356340000000,,0x34FE,
0.003362850000000,,0x0DA3,
0.003369350000000,,0x2787,
0.003375850000000,,0x5728,
0.003382360000000,,0x223E,
0.003388860000000,,0x4F29,
0.003395370000000,,0x1DC5,
0.003401870000000,,0x0CFC,
0.003408380000000,,0x18FD,
0.003414880000000,,0x1E9E,
0.003421380000000,,0x5E4F,
0.003427890000000,,0x7725,
0.003434390000000,,0x7FDD,
0.003440900000000,,0x1625,
0.003447400000000,,0x2F57,
0.003453900000000,,0x7A03,
0.003460410000000,,0x700D,
0.003466910000000,,0x221F,
0.003473420000000,,0x0359,
0.003479920000000,,0x07EF,
0.003486430000000,,0x21BE,
0.003492930000000,,0x07E7,
0.003499440000000,,0x2190,
0.003505940000000,,0x701A,
0.003512450000000,,0x5DA7,
0.003518950000000,,0x3E09,
0.003525450000000,,0x546D,
0.003531960000000,,0x0796,
0.003538460000000,,0x6CCA,
0.003544970000000,,0x3A24,
0.003551470000000,,0x6936,
0.003557970000000,,0x4DAD,
0.003564480000000,,0x36A4,
0.003570980000000,,0x1606,
0.003577490000000,,0x723D,
0.003583990000000,,0x6D04,
0.003590500000000,,0x0F60,
0.003597000000000,,0x3632,
0.003603500000000,,0x63DD,
0.003610010000000,,0x3624,
0.003616510000000,,0x14E8,
0.003623020000000,,0x0DE2,
0.003629520000000,,0x2E7D,
0.003636030000000,,0x6E51,
0.003642530000000,,0x2A95,
0.003649030000000,,0x7A2A,
0.003655540000000,,0x3C53,
0.003662040000000,,0x4FC8,
0.003668550000000,,0x522C,
0.003675050000000,,0x56E6,
0.003681560000000,,0x177A,
0.003688060000000,,0x102D,
0.003694560000000,,0x33B5,
0.003701070000000,,0x0C7C,
0.003707570000000,,0x1A13,
0.003714080000000,,0x6141,
0.003720580000000,,0x1D36,
0.003727090000000,,0x1614,
0.003733590000000,,0x637A,
0.003740090000000,,0x0FD2,
0.003746600000000,,0x2520,
0.003753100000000,,0x2123,
0.003759610000000,,0x2FC3,
0.003766110000000,,0x5A84,
0.003772620000000,,0x7A72,
0.003779120000000,,0x3D57,
0.003785620000000,,0x6821,
0.003792130000000,,0x37C8,
0.003798630000000,,0x744B,
0.003805140000000,,0x4377,
0.003811640000000,,0x1677,
0.003818140000000,,0x3F67,
0.003824650000000,,0x273A,
0.003831150000000,,0x3BF1,
0.003837660000000,,0x4596,
0.003844160000000,,0x0114,
0.003850670000000,,0x27B4,
0.003857170000000,,0x0A1F,
0.003863670000000,,0x5AC2,
0.003870180000000,,0x482B,
0.003876680000000,,0x15CE,
0.003883190000000,,0x7FEC,
0.003889690000000,,0x5A08,
0.003896190000000,,0x5A86,
0.003902700000000,,0x2F2E,
0.003909200000000,,0x7331,
0.003915710000000,,0x0E85,
0.003922210000000,,0x5E32,
0.003928710000000,,0x5C23,
0.003935220000000,,0x1B0E,
0.003941720000000,,0x4E56,
0.003948230000000,,0x6642,
0.003954730000000,,0x59F6,
0.003961230000000,,0x20D9,
0.003967740000000,,0x7C13,
0.003974240000000,,0x6C9C,
0.003980750000000,,0x4C66,
0.003987250000000,,0x6D1F,
0.003993760000000,,0x1684,
0.004000260000000,,0x258F,
0.004006760000000,,0x5CBD,
0.004013270000000,,0x2ABD,
0.004019770000000,,0x3EF9,
0.004026280000000,,0x5712,
0.004032780000000,,0x77AA,
0.004039280000000,,0x46BE,
0.004045790000000,,0x0FE7,
0.004052290000000,,0x0F7F,
0.004058800000000,,0x0DE2,
0.004065300000000,,0x6A3B,
0.004071810000000,,0x2D1A,
0.004078310000000,,0x1E1E,
0.004084820000000,,0x18E7,
0.004091320000000,,0x4BB1,
0.004097830000000,,0x082F,
0.004104330000000,,0x15D9,
0.004110830000000,,0x4412,
0.004117340000000,,0x2413,
0.004123840000000,,0x3D8F,
0.004130350000000,,0x6BCB,
0.004136850000000,,0x6FFE,
0.004143360000000,,0x52D6,
0.004149860000000,,0x00EB,
0.004156360000000,,0x5EDD,
0.004162870000000,,0x20CA,
0.004169370000000,,0x219F,
0.004175880000000,,0x4B97,
0.004182380000000,,0x3BBA,
0.004188880000000,,0x5D58,
0.004195390000000,,0x42BD,
0.004201890000000,,0x0107,
0.004208400000000,,0x7A38,
0.004214900000000,,0x2D14,
0.004221410000000,,0x2D1E,
0.004227910000000,,0x786C,
0.004234410000000,,0x41F7,
0.004240920000000,,0x5B64,
0.004247420000000,,0x7C8D,
0.004253930000000,,0x5D2F,
0.004260430000000,,0x3CC9,
0.004266930000000,,0x5C4F,
0.004273440000000,,0x38D8,
0.004279940000000,,0x43E8,
0.004286450000000,,0x2F49,
0.004292950000000,,0x495E,
0.004299460000000,,0x7F7D,
0.004305960000000,,0x5036,
0.004312460000000,,0x4C34,
0.004318970000000,,0x7D2F,
0.004325470000000,,0x4BBD,
0.004331980000000,,0x6E73,
0.004338480000000,,0x3B34,
0.004344990000000,,0x28F0,
0.004351490000000,,0x1EA2,
0.004358000000000,,0x7CB3,
0.004364500000000,,0x2A8F,
0.004371010000000,,0x2F05,
0.004377510000000,,0x6A33,
0.004384010000000,,0x2D34,
0.004390520000000,,0x69E3,
0.004397020000000,,0x64D0,
0.004403530000000,,0x05A2,
0.004410030000000,,0x01E5,
0.004416540000000,,0x2C46,
0.004423040000000,,0x7CB5,
0.004429550000000,,0x19A1,
0.004436050000000,,0x3873,
0.004442560000000,,0x1C42,
0.004449060000000,,0x306C,
0.004455570000000,,0x097D,
0.004462070000000,,0x4472,
0.004468580000000,,0x25DF,
0.004475080000000,,0x5D97,
0.004481580000000,,0x7AA9,
0.004488090000000,,0x272A,
0.004494590000000,,0x3BAC,
0.004501100000000,,0x2A6D,
0.004507600000000,,0x797B,
0.004514100000000,,0x3B92,
0.004520610000000,,0x198B,
0.004527110000000,,0x29FC,
0.004533620000000,,0x3965,
0.004540120000000,,0x6EAA,
0.004546630000000,,0x7415,
0.004553130000000,,0x351B,
0.004559630000000,,0x65A3,
0.004566140000000,,0x1879,
0.004572640000000,,0x7A02,
0.004579150000000,,0x7880,
0.004585650000000,,0x2489,
0.004592160000000,,0x6A4E,
0.004598660000000,,0x4274,
0.004605160000000,,0x4E7B,
0.004611670000000,,0x0828,
0.004618170000000,,0x2E7A,
0.004624680000000,,0x55F2,
0.004631180000000,,0x3B75,
0.004637690000000,,0x654C,
0.004644190000000,,0x6490,
0.004650700000000,,0x4093,
0.004657200000000,,0x7D41,
0.004663700000000,,0x7971,
0.004670210000000,,0x6EE0,
0.004676710000000,,0x2010,
0.004683220000000,,0x336F,
0.004689720000000,,0x1E8C,
0.004696230000000,,0x4F08,
0.004702730000000,,0x15F3,
0.004709240000000,,0x559D,
0.004715740000000,,0x0134,
0.004722250000000,,0x6349,
0.004728750000000,,0x16A3,
0.004735260000000,,0x1E97,
0.004741760000000,,0x12AA,
0.004748260000000,,0x4505,
0.004754770000000,,0x5E76,
0.004761270000000,,0x7F60,
0.004767780000000,,0x3EBA,
0.004774280000000,,0x0BB4,
0.004780790000000,,0x00B5,
0.004787290000000,,0x28B1,
0.004793790000000,,0x531E,
0.004800300000000,,0x0681,
0.004806800000000,,0x16AF,
0.004813310000000,,0x78CB,
0.004819810000000,,0x3C47,
0.004826310000000,,0x29E7,
0.004832820000000,,0x64C7,
0.004839320000000,,0x3E5C,
0.004845830000000,,0x7FFE,
0.004852330000000,,0x4B4F,
0.004858830000000,,0x3850,
0.004865340000000,,0x056E,
0.004871840000000,,0x6420,
0.004878350000000,,0x429B,
0.004884850000000,,0x3292,
0.004891350000000,,0x32B9,
0.004897860000000,,0x2BBB,
0.004904360000000,,0x080A,
0.004910870000000,,0x3FDB,
0.004917370000000,,0x0728,
0.004923880000000,,0x1984,
0.004930380000000,,0x5637,
0.004936880000000,,0x1C33,
0.004943390000000,,0x3970,
0.004949890000000,,0x0008,
0.004956400000000,,0x4468,
0.004962900000000,,0x34B6,
0.004969410000000,,0x48BC,
0.004975910000000,,0x2CDE,
0.004982410000000,,0x7E28,
0.004988920000000,,0x7E78,
0.004995420000000,,0x7F52,
0.005001930000000,,0x2F46,
0.005008430000000,,0x3695,
0.005014930000000,,0x5A2B,
0.005021440000000,,0x07EC,
0.005027940000000,,0x3829,
0.005034450000000,,0x0C5C,
0.005040950000000,,0x1AA8,
0.005047460000000,,0x3EB6,
0.005053960000000,,0x6DE8,
0.005060470000000,,0x2E58,
0.005066970000000,,0x4453,
0.005073470000000,,0x69AF,
0.005079980000000,,0x47BD,
0.005086480000000,,0x57EB,
0.005092990000000,,0x3830,
0.005099490000000,,0x04A2,
0.005106000000000,,0x0438,
0.005112500000000,,0x53F9,
0.005119000000000,,0x7A46,
0.005125510000000,,0x5BC3,
0.005132010000000,,0x013D,
0.005138520000000,,0x2FAC,
0.005145020000000,,0x2483,
0.005151530000000,,0x3F3C,
0.005158030000000,,0x7BEF,
0.005164530000000,,0x54E8,
0.005171040000000,,0x2FC1,
0.005177540000000,,0x0FD8,
0.005184050000000,,0x3414,
0.005190550000000,,0x5BF3,
0.005197060000000,,0x01DB,
0.005203560000000,,0x1FA0,
0.005210060000000,,0x2C32,
0.005216570000000,,0x1B56,
0.005223070000000,,0x4F52,
0.005229580000000,,0x41AB,
0.005236080000000,,0x3C12,
0.005242580000000,,0x0274,
0.005249090000000,,0x281E,
0.005255590000000,,0x6AC6,
0.005262100000000,,0x40B4,
0.005268600000000,,0x4659,
0.005275100000000,,0x3766,
0.005281610000000,,0x0158,
0.005288110000000,,0x409F,
0.005294620000000,,0x1B1D,
0.005301120000000,,0x579C,
0.005307630000000,,0x0202,
0.005314130000000,,0x1AA1,
0.005320630000000,,0x7253,
0.005327140000000,,0x5FC8,
0.005333640000000,,0x0FF3,
0.005340150000000,,0x2D16,
0.005346650000000,,0x7842,
0.005353160000000,,0x360A,
0.005359660000000,,0x2753,
0.005366160000000,,0x329E,
0.005372670000000,,0x54E5,
0.005379170000000,,0x0556,
0.005385680000000,,0x64E8,
0.005392180000000,,0x056A,
0.005398690000000,,0x4614,
0.005405190000000,,0x58C0,
0.005411690000000,,0x16CC,
0.005418200000000,,0x24D6,
0.005424700000000,,0x14AF,
0.005431210000000,,0x3736,
0.005437710000000,,0x0072,
0.005444220000000,,0x108B,
0.005450720000000,,0x02CE,
0.005457230000000,,0x3B22,
0.005463730000000,,0x5FC5,
0.005470240000000,,0x2564,
0.005476740000000,,0x4626,
0.005483240000000,,0x493C,
0.005489750000000,,0x2BED,
0.005496250000000,,0x7E48,
0.005502760000000,,0x3BF2,
0.005509260000000,,0x5C01,
0.005515770000000,,0x0AAF,
0.005522270000000,,0x1C8C,
0.005528780000000,,0x44B3,
0.005535280000000,,0x6A8D,
0.005541790000000,,0x587A,
0.005548290000000,,0x05F0,
0.005554800000000,,0x11D5,
0.005561300000000,,0x717F,
0.005567800000000,,0x3749,
0.005574310000000,,0x7E28,
0.005580810000000,,0x3A3E,
0.005587320000000,,0x3C19,
0.005593820000000,,0x1BCD,
0.005600330000000,,0x5458,
0.005606830000000,,0x2DC9,
0.005613340000000,,0x400B,
0.005619840000000,,0x7FDC,
0.005626350000000,,0x1EA8,
0.005632850000000,,0x29C1,
0.005639360000000,,0x1314,
0.005645860000000,,0x3596,
0.005652370000000,,0x4DDA,
0.005658870000000,,0x0C96,
0.005665380000000,,0x0805,
0.005671880000000,,0x0456,
0.005678390000000,,0x6135,
0.005684890000000,,0x7AD5,
0.005691390000000,,0x40E7,
0.005697900000000,,0x1AA2,
0.005704400000000,,0x2F82,
0.005710910000000,,0x1738,
0.005717410000000,,0x0040,
0.005723920000000,,0x0177,
0.005730420000000,,0x3FEF,
0.005736930000000,,0x61BC,
0.005743430000000,,0x7098,
0.005749940000000,,0x4E53,
0.005756440000000,,0x4CFB,
0.005762950000000,,0x453B,
0.005769450000000,,0x6D90,
0.005775960000000,,0x2FE7,
0.005782460000000,,0x3C4D,
0.005788970000000,,0x7C95,
0.005795470000000,,0x5D5C,
0.005801970000000,,0x24CF,
0.005808480000000,,0x5817,
0.005814980000000,,0x6AED,
0.005821490000000,,0x59B6,
0.005827990000000,,0x65E8,
0.005834500000000,,0x00B7,
0.005841000000000,,0x39AB,
0.005847510000000,,0x5E33,
0.005854010000000,,0x54AE,
0.005860510000000,,0x1D98,
0.005867020000000,,0x2741,
0.005873520000000,,0x23D9,
0.005880030000000,,0x3633,
0.005886530000000,,0x2F16,
0.005893040000000,,0x73F9,
0.005899540000000,,0x4974,
0.005906050000000,,0x2AB4,
0.005912550000000,,0x365A,
0.005919060000000,,0x2679,
0.005925560000000,,0x628A,
0.005932060000000,,0x4D36,
0.005938570000000,,0x69E8,
0.005945070000000,,0x392F,
0.005951580000000,,0x3AAF,
0.005958080000000,,0x7261,
0.005964590000000,,0x4E34,
0.005971090000000,,0x32D2,
0.005977600000000,,0x7788,
0.005984100000000,,0x571F,
0.005990600000000,,0x5D3D,
0.005997110000000,,0x2D8E,
0.006003610000000,,0x3E99,
0.006010120000000,,0x1298,
0.006016620000000,,0x54F9,
0.006023130000000,,0x6357,
0.006029630000000,,0x25FE,
0.006036140000000,,0x11E7,
0.006042640000000,,0x6083,
0.006049140000000,,0x0A68,
0.006055650000000,,0x24B6,
0.006062150000000,,0x1563,
0.006068660000000,,0x572E,
0.006075160000000,,0x1110,
0.006081670000000,,0x585F,
0.006088170000000,,0x6BB4,
0.006094680000000,,0x11A4,
0.006101180000000,,0x7863,
0.006107680000000,,0x3E3C,
0.006114190000000,,0x7E32,
0.006120690000000,,0x2B57,
0.006127200000000,,0x2932,
0.006133700000000,,0x4DBA,
0.006140200000000,,0x0D5A,
0.006146710000000,,0x681D,
0.006153210000000,,0x1534,
0.006159720000000,,0x29E1,
0.006166220000000,,0x13AF,
0.006172720000000,,0x6A61,
0.006179230000000,,0x3D04,
0.006185730000000,,0x34DA,
0.006192240000000,,0x2F2C,
0.006198740000000,,0x622B,
0.006205250000000,,0x03A8,
0.006211750000000,,0x0C1D,
0.006218250000000,,0x5714,
0.006224760000000,,0x4484,
0.006231260000000,,0x51C8,
0.006237770000000,,0x7996,
0.006244270000000,,0x1227,
0.006250780000000,,0x6D7C,
0.006257280000000,,0x4A99,
0.006263780000000,,0x0D67,
0.006270290000000,,0x426C,
0.006276790000000,,0x4E08,
0.006283300000000,,0x102E,
0.006289800000000,,0x2A22,
0.006296310000000,,0x07C7,
0.006302810000000,,0x212B,
0.006309310000000,,0x2FED,
0.006315820000000,,0x2D79,
0.006322320000000,,0x0645,
0.006328830000000,,0x7344,
0.006335330000000,,0x61EB,
0.006341840000000,,0x0E57,
0.006348340000000,,0x4CEC,
0.006354850000000,,0x7EC5,
0.006361350000000,,0x138B,
0.006367850000000,,0x48EE,
0.006374360000000,,0x78A8,
0.006380860000000,,0x605A,
0.006387370000000,,0x010F,
0.006393870000000,,0x7A16,
0.006400380000000,,0x5AE9,
0.006406880000000,,0x5129,
0.006413390000000,,0x367F,
0.006419890000000,,0x483D,
0.006426400000000,,0x62FB,
0.006432900000000,,0x442A,
0.006439400000000,,0x609D,
0.006445910000000,,0x3935,
0.006452410000000,,0x2BC6,
0.006458920000000,,0x674A,
0.006465420000000,,0x1843,
0.006471930000000,,0x6BD0,
0.006478430000000,,0x325C,
0.006484940000000,,0x0220,
0.006491440000000,,0x0B00,
0.006497950000000,,0x2089,
0.006504450000000,,0x7D39,
0.006510950000000,,0x3C88,
0.006517460000000,,0x55B5,
0.006523960000000,,0x01A1,
0.006530470000000,,0x4B43,
0.006536970000000,,0x1A4A,
0.006543480000000,,0x68C8,
0.006549980000000,,0x3C49,
0.006556490000000,,0x1AE7,
0.006562990000000,,0x044C,
0.006569500000000,,0x341A,
0.006576000000000,,0x2CB5,
0.006582500000000,,0x221B,
0.006589010000000,,0x216D,
0.006595510000000,,0x1DB4,
0.006602020000000,,0x05E0,
0.006608520000000,,0x1188,
0.006615030000000,,0x1E84,
0.006621530000000,,0x4F26,
0.006628040000000,,0x620E,
0.006634540000000,,0x29AA,
0.006641050000000,,0x4F27,
0.006647550000000,,0x6A83,
0.006654050000000,,0x2F3C,
0.006660560000000,,0x2630,
0.006667060000000,,0x2F18,
0.006673570000000,,0x40F9,
0.006680070000000,,0x29FF,
0.006686580000000,,0x20F2,
0.006693080000000,,0x6511,
0.006699590000000,,0x4F2D,
0.006706090000000,,0x7BB7,
0.006712590000000,,0x55EC,
0.006719100000000,,0x0828,
0.006725600000000,,0x6A3C,
0.006732110000000,,0x16B9,
0.006738610000000,,0x0FFE,
0.006745120000000,,0x0781,
0.006751620000000,,0x1372,
0.006758130000000,,0x0774,
0.006764630000000,,0x3AB4,
0.006771140000000,,0x6B85,
0.006777640000000,,0x5D89,
0.006784140000000,,0x0DB2,
0.006790650000000,,0x6B11,
0.006797150000000,,0x7D0E,
0.006803660000000,,0x07CD,
0.006810160000000,,0x7459,
0.006816670000000,,0x1676,
0.006823170000000,,0x37EA,
0.006829670000000,,0x21AC,
0.006836180000000,,0x52E6,
0.006842680000000,,0x000D,
0.006849190000000,,0x6ED1,
0.006855690000000,,0x287B,
0.006862200000000,,0x05F5,
0.006868700000000,,0x7F2A,
0.006875210000000,,0x2EF9,
0.006881710000000,,0x4E8B,
0.006888210000000,,0x4F11,
0.006894720000000,,0x1D0D,
0.006901220000000,,0x4B0D,
0.006907730000000,,0x6C7B,
0.006914230000000,,0x74E7,
0.006920740000000,,0x6338,
0.006927240000000,,0x5BF9,
0.006933750000000,,0x54A9,
0.006940250000000,,0x263B,
0.006946750000000,,0x36A1,
0.006953260000000,,0x3CBF,
0.006959760000000,,0x6EF0,
0.006966270000000,,0x204D,
0.006972770000000,,0x5C94,
0.006979280000000,,0x66E3,
0.006985780000000,,0x532E,
0.006992290000000,,0x0667,
0.006998790000000,,0x26A3,
0.007005300000000,,0x707A,
0.007011800000000,,0x182D,
0.007018310000000,,0x1D5A,
0.007024810000000,,0x7184,
0.007031320000000,,0x2D8F,
0.007037820000000,,0x7252,
0.007044320000000,,0x5745,
0.007050830000000,,0x0965,
0.007057330000000,,0x4401,
0.007063840000000,,0x3DD9,
0.007070340000000,,0x59CF,
0.007076850000000,,0x289C,
0.007083350000000,,0x3D74,
0.007089860000000,,0x710D,
0.007096360000000,,0x6384,
0.007102870000000,,0x3FAD,
0.007109370000000,,0x3597,
0.007115870000000,,0x0111,
0.007122380000000,,0x494B,
0.007128880000000,,0x5599,
0.007135390000000,,0x2300,
0.007141890000000,,0x7912,
0.007148400000000,,0x32FD,
0.007154900000000,,0x08F8,
0.007161410000000,,0x2DBE,
0.007167910000000,,0x7A39,
0.007174410000000,,0x61DF,
0.007180920000000,,0x68C3,
0.007187420000000,,0x25F0,
0.007193930000000,,0x66A1,
0.007200430000000,,0x4343,
0.007206940000000,,0x34A5,
0.007213440000000,,0x1530,
0.007219950000000,,0x0BD5,
0.007226450000000,,0x09F4,
0.007232950000000,,0x4E3F,
0.007239460000000,,0x2B6B,
0.007245960000000,,0x0BCE,
0.007252470000000,,0x1010,
0.007258970000000,,0x5D82,
0.007265480000000,,0x140B,
0.007271980000000,,0x1757,
0.007278480000000,,0x3A01,
0.007284990000000,,0x0772,
0.007291490000000,,0x4DDC,
0.007298000000000,,0x3FB8,
0.007304500000000,,0x1F73,
0.007311010000000,,0x7227,
0.007317510000000,,0x7C6D,
0.007324020000000,,0x1A4B,
0.007330520000000,,0x6045,
0.007337020000000,,0x3ADF,
0.007343530000000,,0x73F0,
0.007350030000000,,0x41D7,
0.007356540000000,,0x5BDF,
0.007363040000000,,0x237A,
0.007369550000000,,0x2DF1,
0.007376050000000,,0x0485,
0.007382560000000,,0x7B66,
0.007389060000000,,0x5EA5,
0.007395560000000,,0x2175,
0.007402070000000,,0x5981,
0.007408570000000,,0x5EAD,
0.007415080000000,,0x215B,
0.007421580000000,,0x2E7C,
0.007428080000000,,0x229A,
0.007434590000000,,0x6F48,
0.007441090000000,,0x27B6,
0.007447600000000,,0x1B05,
0.007454100000000,,0x57EF,
0.007460610000000,,0x1A04,
0.007467110000000,,0x1EF9,
0.007473620000000,,0x2066,
0.007480120000000,,0x4596,
0.007486630000000,,0x4552,
0.007493130000000,,0x64FF,
0.007499630000000,,0x3E94,
0.007506140000000,,0x380F,
0.007512640000000,,0x3FC9,
0.007519150000000,,0x5229,
0.007525650000000,,0x3819,
0.007532160000000,,0x48FC,
0.007538660000000,,0x69EF,
0.007545170000000,,0x028C,
0.007551670000000,,0x2B4F,
0.007558180000000,,0x6D07,
0.007564680000000,,0x16F7,
0.007571180000000,,0x3D89,
0.007577690000000,,0x58E5,
0.007584190000000,,0x7888,
0.007590700000000,,0x24A7,
0.007597200000000,,0x1DB3,
0.007603710000000,,0x3E43,
0.007610210000000,,0x0068,
0.007616720000000,,0x01E2,
0.007623220000000,,0x17E5,
0.007629720000000,,0x6D55,
0.007636230000000,,0x06C7,
0.007642730000000,,0x60B0,
0.007649240000000,,0x1319,
0.007655740000000,,0x1F01,
0.007662250000000,,0x26EA,
0.007668750000000,,0x3DE8,
0.007675250000000,,0x15E2,
0.007681760000000,,0x5D4D,
0.007688260000000,,0x6859,
0.007694770000000,,0x7231,
0.007701270000000,,0x4F1E,
0.007707780000000,,0x62C6,
0.007714280000000,,0x6E5B,
0.007720790000000,,0x3BA1,
0.007727290000000,,0x00FA,
0.007733790000000,,0x124B,
0.007740300000000,,0x0AEC,
0.007746800000000,,0x046C,
0.007753310000000,,0x70E7,
0.007759810000000,,0x3009,
0.007766320000000,,0x664E,
0.007772820000000,,0x7BEC,
0.007779330000000,,0x4D7F,
0.007785830000000,,0x247A,
0.007792330000000,,0x34E0,
0.007798840000000,,0x7AB8,
0.007805340000000,,0x6BBC,
0.007811850000000,,0x118A,
0.007818350000000,,0x0F9E,
0.007824860000000,,0x420B,
0.007831360000000,,0x3021,
0.007837870000000,,0x229D,
0.007844370000000,,0x10AD,
0.007850870000000,,0x751D,
0.007857380000000,,0x30E8,
0.007863880000000,,0x6DE1,
0.007870390000000,,0x62BD,
0.007876890000000,,0x7673,
0.007883400000000,,0x4804,
0.007889900000000,,0x2EF8,
0.007896400000000,,0x4606,
0.007902910000000,,0x4987,
0.007909410000000,,0x741A,
0.007915920000000,,0x0E96,
0.007922420000000,,0x03BE,
0.007928930000000,,0x7B28,
0.007935430000000,,0x6CD2,
0.007941940000000,,0x7E11,
0.007948440000000,,0x327B,
0.007954940000000,,0x7D7E,
0.007961450000000,,0x065C,
0.007967950000000,,0x7BBA,
0.007974460000000,,0x7F7B,
0.007980960000000,,0x6318,
0.007987470000000,,0x5B42,
0.007993970000000,,0x0B5E,
0.008000470000000,,0x56E5,
0.008006980000000,,0x0EED,
0.008013480000000,,0x1B96,
0.008019990000000,,0x088D,
0.008026490000000,,0x42D0,
0.008032990000000,,0x2A5C,
0.008039500000000,,0x7110,
0.008046000000000,,0x0D08,
0.008052510000000,,0x782D,
0.008059010000000,,0x480D,
0.008065520000000,,0x621D,
0.008072020000000,,0x7426,
0.008078530000000,,0x682C,
0.008085030000000,,0x1D5F,
0.008091530000000,,0x1F7B,
0.008098040000000,,0x7209,
0.008104540000000,,0x0B90,
0.008111050000000,,0x667C,
0.008117550000000,,0x2E56,
0.008124060000000,,0x3315,
0.008130560000000,,0x4A6F,
0.008137060000000,,0x7970,
0.008143570000000,,0x666D,
0.008150070000000,,0x2686,
0.008156580000000,,0x5A78,
0.008163080000000,,0x5B17,
0.008169590000000,,0x20CD,
0.008176090000000,,0x1A3C,
0.008182600000000,,0x5A77,
0.008189100000000,,0x24DC,
0.008195600000000,,0x059B,
0.008202110000000,,0x4DE6,
0.008208610000000,,0x2E6A,
0.008215120000000,,0x55AF,
0.008221620000000,,0x548E,
0.008228130000000,,0x1D23,
0.008234630000000,,0x78B6,
0.008241130000000,,0x5307,
0.008247640000000,,0x0E7F,
0.008254140000000,,0x083F,
0.008260650000000,,0x1584,
0.008267150000000,,0x2BE9,
0.008273660000000,,0x5C7C,
0.008280160000000,,0x21A9,
0.008286670000000,,0x785F,
0.008293170000000,,0x1CC0,
0.008299680000000,,0x2398,
0.008306180000000,,0x7B8F,
0.008312680000000,,0x5524,
0.008319190000000,,0x4FD9,
0.008325690000000,,0x1EBA,
0.008332200000000,,0x7CC0,
0.008338700000000,,0x3289,
0.008345210000000,,0x2B5D,
0.008351710000000,,0x3806,
0.008358210000000,,0x376A,
0.008364720000000,,0x2342,
0.008371220000000,,0x2D39,
0.008377730000000,,0x4374,
0.008384230000000,,0x0FE0,
0.008390730000000,,0x34DC,
0.008397240000000,,0x1C02,
0.008403740000000,,0x755D,
0.008410250000000,,0x75D9,
0.008416750000000,,0x1145,
0.008423260000000,,0x378A,
0.008429760000000,,0x6426,
0.008436260000000,,0x71B5,
0.008442770000000,,0x25E4,
0.008449270000000,,0x44C8,
0.008455780000000,,0x36E3,
0.008462280000000,,0x6894,
0.008468780000000,,0x1F79,
0.008475290000000,,0x2755,
0.008481790000000,,0x45F6,
0.008488300000000,,0x00D8,
0.008494800000000,,0x47AC,
0.008501310000000,,0x1B7D,
0.008507810000000,,0x1216,
0.008514310000000,,0x2151,
0.008520820000000,,0x3F48,
0.008527320000000,,0x584A,
0.008533830000000,,0x4150,
0.008540330000000,,0x6292,
0.008546840000000,,0x4D45,
0.008553340000000,,0x71EE,
0.008559840000000,,0x3D77,
0.008566350000000,,0x689A,
0.008572850000000,,0x683F,
0.008579360000000,,0x0495,
0.008585860000000,,0x7B3B,
0.008592370000000,,0x315E,
0.008598870000000,,0x591A,
0.008605370000000,,0x45A7,
0.008611880000000,,0x4D39,
0.008618380000000,,0x5265,
0.008624890000000,,0x5F32,
0.008631390000000,,0x59FE,
0.008637900000000,,0x64B1,
0.008644400000000,,0x48A5,
0.008650910000000,,0x2420,
0.008657410000000,,0x60B8,
0.008663920000000,,0x1337,
0.008670420000000,,0x68FC,
0.008676920000000,,0x5ADD,
0.008683430000000,,0x73FB,
0.008689930000000,,0x1C28,
0.008696440000000,,0x64D2,
0.008702940000000,,0x50FE,
0.008709450000000,,0x4F83,
0.008715950000000,,0x4AE2,
0.008722460000000,,0x154F,
0.008728960000000,,0x31C9,
0.008735470000000,,0x600A,
0.008741970000000,,0x4463,
0.008748480000000,,0x6949,
0.008754980000000,,0x77B1,
0.008761480000000,,0x5F5A,
0.008767990000000,,0x1C5A,
0.008774490000000,,0x301F,
0.008781000000000,,0x117B,
0.008787500000000,,0x402A,
0.008794010000000,,0x77EA,
0.008800510000000,,0x47C9,
0.008807020000000,,0x3008,
0.008813520000000,,0x6EC3,
0.008820030000000,,0x7D7A,
0.008826530000000,,0x2468,
0.008833030000000,,0x61E1,
0.008839540000000,,0x5B25,
0.008846040000000,,0x7577,
0.008852550000000,,0x6456,
0.008859050000000,,0x3462,
0.008865560000000,,0x694C,
0.008872060000000,,0x194E,
0.008878560000000,,0x00DC,
0.008885070000000,,0x6598,
0.008891570000000,,0x0126,
0.008898080000000,,0x3648,
0.008904580000000,,0x373E,
0.008911090000000,,0x005C,
0.008917590000000,,0x6776,
0.008924090000000,,0x7EF9,
0.008930600000000,,0x7531,
0.008937100000000,,0x560F,
0.008943600000000,,0x1CFB,
0.008950110000000,,0x7E81,
0.008956610000000,,0x748E,
0.008963120000000,,0x2E11,
0.008969620000000,,0x09C1,
0.008976130000000,,0x6460,
0.008982630000000,,0x07AA,
0.008989130000000,,0x4E36,
0.008995640000000,,0x678E,
0.009002140000000,,0x39EE,
0.009008650000000,,0x31BB,
0.009015150000000,,0x34C7,
0.009021650000000,,0x05E6,
0.009028160000000,,0x66E0,
0.009034660000000,,0x4AB9,
0.009041170000000,,0x0DDC,
0.009047670000000,,0x1D9B,
0.009054170000000,,0x3ED6,
0.009060680000000,,0x2862,
0.009067180000000,,0x0D0B,
0.009073690000000,,0x61BA,
0.009080190000000,,0x43B6,
0.009086690000000,,0x5925,
0.009093200000000,,0x3A8A,
0.009099700000000,,0x5863,
0.009106210000000,,0x0D0E,
0.009112710000000,,0x0F45,
0.009119220000000,,0x1C30,
0.009125720000000,,0x20E7,
0.009132220000000,,0x0BB3,
0.009138730000000,,0x7F50,
0.009145230000000,,0x7A1A,
0.009151740000000,,0x78F3,
0.009158240000000,,0x3C8F,
0.009164750000000,,0x6E16,
0.009171250000000,,0x1041,
0.009177760000000,,0x5425,
0.009184260000000,,0x4289,
0.009190760000000,,0x6793,
0.009197270000000,,0x1324,
0.009203770000000,,0x3570,
0.009210280000000,,0x7DD6,
0.009216780000000,,0x0427,
0.009223290000000,,0x2C6F,
0.009229790000000,,0x30EB,
0.009236290000000,,0x7476,
0.009242800000000,,0x6906,
0.009249300000000,,0x4D4B,
0.009255810000000,,0x06A8,
0.009262310000000,,0x1EB7,
0.009268820000000,,0x5657,
0.009275320000000,,0x59B9,
0.009281820000000,,0x1A23,
0.009288330000000,,0x25E1,
0.009294830000000,,0x6E71,
0.009301340000000,,0x2A2E,
0.009307840000000,,0x25DD,
0.009314350000000,,0x4C8D,
0.009320850000000,,0x7784,
0.009327360000000,,0x7505,
0.009333860000000,,0x309B,
0.009340360000000,,0x75E7,
0.009346870000000,,0x66E5,
0.009353370000000,,0x2446,
0.009359880000000,,0x525A,
0.009366380000000,,0x6459,
0.009372890000000,,0x0FEF,
0.009379390000000,,0x0F51,
0.009385890000000,,0x7A1F,
0.009392400000000,,0x160C,
0.009398900000000,,0x6309,
0.009405410000000,,0x17D4,
0.009411910000000,,0x2178,
0.009418420000000,,0x7316,
0.009424920000000,,0x359D,
0.009431430000000,,0x1025,
0.009437930000000,,0x339B,
0.009444430000000,,0x7B81,
0.009450940000000,,0x6624,
0.009457440000000,,0x2F52,
0.009463950000000,,0x14FC,
0.009470450000000,,0x2F8B,
0.009476950000000,,0x5BDD,
0.009483460000000,,0x3260,
0.009489960000000,,0x20DC,
0.009496470000000,,0x56AA,
0.009502970000000,,0x7051,
0.009509470000000,,0x012F,
0.009515980000000,,0x3EEB,
0.009522480000000,,0x4655,
0.009528980000000,,0x157C,
0.009535490000000,,0x6CFE,
0.009541990000000,,0x18F6,
0.009548500000000,,0x4361,
0.009555000000000,,0x6142,
0.009561500000000,,0x04A1,
0.009568010000000,,0x1DAF,
0.009574510000000,,0x5842,
0.009581020000000,,0x417E,
0.009587520000000,,0x156F,
0.009594020000000,,0x3172,
0.009600530000000,,0x3FFD,
0.009607030000000,,0x34BD,
0.009613540000000,,0x5105,
0.009620040000000,,0x5098,
0.009626540000000,,0x3927,
0.009633050000000,,0x7EC7,
0.009639550000000,,0x46D7,
0.009646060000000,,0x0688,
0.009652560000000,,0x1E0C,
0.009659070000000,,0x09A0,
0.009665570000000,,0x2967,
0.009672070000000,,0x226F,
0.009678580000000,,0x02C8,
0.009685080000000,,0x080C,
0.009691590000000,,0x48B3,
0.009698090000000,,0x5315,
0.009704600000000,,0x5B7E,
0.009711100000000,,0x29A2,
0.009717600000000,,0x0B4F,
0.009724110000000,,0x5E35,
0.009730610000000,,0x6780,
0.009737120000000,,0x0AEE,
0.009743620000000,,0x5130,
0.009750130000000,,0x3E81,
0.009756630000000,,0x56AD,
0.009763140000000,,0x0FB4,
0.009769640000000,,0x5384,
0.009776140000000,,0x1506,
0.009782650000000,,0x7C5B,
0.009789150000000,,0x6DC5,
0.009795660000000,,0x0474,
0.009802160000000,,0x7094,
0.009808670000000,,0x280F,
0.009815170000000,,0x6216,
0.009821670000000,,0x29D9,
0.009828180000000,,0x5721,
0.009834680000000,,0x6EDB,
0.009841190000000,,0x7D09,
0.009847690000000,,0x3C6E,
0.009854190000000,,0x65B9,
0.009860700000000,,0x0910,
0.009867200000000,,0x6F29,
0.009873710000000,,0x2EF7,
0.009880210000000,,0x7D8B,
0.009886710000000,,0x2F9A,
0.009893220000000,,0x174B,
0.009899720000000,,0x1846,
0.009906230000000,,0x052F,
0.009912730000000,,0x6DDA,
0.009919230000000,,0x7BE2,
0.009925740000000,,0x3A39,
0.009932240000000,,0x07BA,
0.009938740000000,,0x0A2D,
0.009945250000000,,0x4B3E,
0.009951750000000,,0x750A,
0.009958260000000,,0x4F50,
0.009964760000000,,0x50B1,
0.009971260000000,,0x313F,
0.009977770000000,,0x505B,
0.009984270000000,,0x2329,
0.009990780000000,,0x354C,
0.009997280000000,,0x5F2A,
0.010003780000000,,0x598D,
0.010010290000000,,0x7CB7,
0.010016790000000,,0x4CFD,
0.010023300000000,,0x7615,
0.010029800000000,,0x7AE6,
0.010036300000000,,0x5996,
0.010042810000000,,0x2115,
0.010049310000000,,0x1C0B,
0.010055820000000,,0x7DFE,
0.010062320000000,,0x04B2,
0.010068830000000,,0x0465,
0.010075330000000,,0x3C02,
0.010081840000000,,0x0229,
0.010088340000000,,0x47E5,
0.010094850000000,,0x12A9,
0.010101350000000,,0x5C92,
0.010107850000000,,0x55CD,
0.010114360000000,,0x4458,
0.010120860000000,,0x7016,
0.010127370000000,,0x3BFB,
0.010133870000000,,0x10E4,
0.010140380000000,,0x388F,
0.010146880000000,,0x3D27,
0.010153390000000,,0x2DF6,
0.010159890000000,,0x7B60,
0.010166390000000,,0x29CD,
0.010172900000000,,0x7548,
0.010179400000000,,0x1B7B,
0.010185910000000,,0x2138,
0.010192410000000,,0x3627,
0.010198920000000,,0x4939,
0.010205420000000,,0x4512,
0.010211920000000,,0x21CE,
0.010218430000000,,0x4230,
0.010224930000000,,0x6D38,
0.010231440000000,,0x2D9C,
0.010237940000000,,0x6B98,
0.010244440000000,,0x3305,
0.010250950000000,,0x4A32,
0.010257450000000,,0x168B,
0.010263960000000,,0x1E02,
0.010270460000000,,0x3AA0,
0.010276960000000,,0x49EC,
0.010283470000000,,0x2829,
0.010289970000000,,0x5183,
0.010296480000000,,0x6158,
0.010302980000000,,0x518E,
0.010309480000000,,0x4BCF,
0.010315990000000,,0x3ABE,
0.010322490000000,,0x7AB1,
0.010329000000000,,0x2759,
0.010335500000000,,0x23AA,
0.010342000000000,,0x2E35,
0.010348510000000,,0x2B4E,
0.010355010000000,,0x21CC,
0.010361510000000,,0x532A,
0.010368020000000,,0x6015,
0.010374520000000,,0x7FB3,
0.010381030000000,,0x60AF,
0.010387530000000,,0x6C8F,
0.010394040000000,,0x55AC,
0.010400540000000,,0x095F,
0.010407040000000,,0x55D3,
0.010413550000000,,0x7705,
0.010420050000000,,0x7F66,
0.010426560000000,,0x49D2,
0.010433060000000,,0x5F89,
0.010439560000000,,0x424F,
0.010446070000000,,0x5724,
0.010452570000000,,0x4462,
0.010459080000000,,0x61C4,
0.010465580000000,,0x7127,
0.010472090000000,,0x364D,
0.010478590000000,,0x59C1,
0.010485090000000,,0x5FDA,
0.010491600000000,,0x1EB4,
0.010498100000000,,0x4FC0,
0.010504610000000,,0x5202,
0.010511110000000,,0x211B,
0.010517620000000,,0x6B4D,
0.010524120000000,,0x5E3E,
0.010530620000000,,0x3A7F,
0.010537130000000,,0x35E3,
0.010543630000000,,0x22B4,
0.010550140000000,,0x5CF3,
0.010556640000000,,0x18CA,
0.010563140000000,,0x619D,
0.010569650000000,,0x3CE8,
0.010576150000000,,0x5479,
0.010582660000000,,0x61B9,
0.010589160000000,,0x5A21,
0.010595660000000,,0x529E,
0.010602170000000,,0x01B2,
0.010608670000000,,0x16CF,
0.010615180000000,,0x3D41,
0.010621680000000,,0x1F14,
0.010628180000000,,0x0C0E,
0.010634690000000,,0x4EDE,
0.010641190000000,,0x20C4,
0.010647700000000,,0x129F,
0.010654200000000,,0x2B1C,
0.010660710000000,,0x31FC,
0.010667210000000,,0x0E13,
0.010673710000000,,0x2BE9,
0.010680220000000,,0x183A,
0.010686720000000,,0x62E2,
0.010693230000000,,0x4CD4,
0.010699730000000,,0x7E0D,
0.010706230000000,,0x547A,
0.010712740000000,,0x3C68,
0.010719240000000,,0x12D1,
0.010725750000000,,0x5D2D,
0.010732250000000,,0x2DD3,
0.010738750000000,,0x5162,
0.010745260000000,,0x6AF7,
0.010751760000000,,0x48DF,
0.010758270000000,,0x70C3,
0.010764770000000,,0x56C0,
0.010771280000000,,0x60A9,
0.010777780000000,,0x1BE7,
0.010784290000000,,0x0191,
0.010790790000000,,0x4BA5,
0.010797290000000,,0x2A46,
0.010803800000000,,0x6079,
0.010810300000000,,0x1823,
0.010816810000000,,0x2E5A,
0.010823310000000,,0x110F,
0.010829820000000,,0x27C9,
0.010836320000000,,0x2119,
0.010842830000000,,0x3E11,
0.010849330000000,,0x1058,
0.010855840000000,,0x5CDB,
0.010862340000000,,0x5C19,
0.010868850000000,,0x0ADC,
0.010875350000000,,0x048A,
0.010881850000000,,0x40EB,
0.010888360000000,,0x38B8,
0.010894860000000,,0x4224,
0.010901370000000,,0x4F51,
0.010907870000000,,0x583C,
0.010914380000000,,0x37A9,
0.010920880000000,,0x394C,
0.010927390000000,,0x66B2,
0.010933890000000,,0x5A89,
0.010940390000000,,0x50E5,
0.010946900000000,,0x5667,
0.010953400000000,,0x595F,
0.010959910000000,,0x2A2F,
0.010966410000000,,0x2D50,
0.010972910000000,,0x4A1B,
0.010979420000000,,0x1E93,
0.010985920000000,,0x309E,
0.010992430000000,,0x5F5E,
0.010998930000000,,0x7A28,
0.011005430000000,,0x690F,
0.011011940000000,,0x01AE,
0.011018440000000,,0x3488,
0.011024950000000,,0x3F1C,
0.011031450000000,,0x3F12,
0.011037960000000,,0x4854,
0.011044460000000,,0x6B94,
0.011050960000000,,0x5559,
0.011057470000000,,0x64DF,
0.011063970000000,,0x7A69,
0.011070480000000,,0x24B3,
0.011076980000000,,0x7B9C,
0.011083480000000,,0x08A8,
0.011089990000000,,0x68D2,
0.011096490000000,,0x6966,
0.011103000000000,,0x4C87,
0.011109500000000,,0x66B0,
0.011116010000000,,0x0FD5,
0.011122510000000,,0x1E83,
0.011129020000000,,0x30C3,
0.011135520000000,,0x30A5,
0.011142020000000,,0x0247,
0.011148530000000,,0x7529,
0.011155030000000,,0x123A,
0.011161540000000,,0x47B6,
0.011168040000000,,0x4E52,
0.011174550000000,,0x4476,
0.011181050000000,,0x43AD,
0.011187560000000,,0x0487,
0.011194060000000,,0x6A7C,
0.011200560000000,,0x5388,
0.011207070000000,,0x735A,
0.011213570000000,,0x52B6,
0.011220080000000,,0x0127,
0.011226580000000,,0x3EC5,
0.011233090000000,,0x31A8,
0.011239590000000,,0x694B,
0.011246090000000,,0x22ED,
0.011252600000000,,0x113C,
0.011259100000000,,0x7AFE,
0.011265610000000,,0x59E5,
0.011272110000000,,0x3913,
0.011278620000000,,0x1853,
0.011285120000000,,0x2FCB,
0.011291620000000,,0x1EEC,
0.011298130000000,,0x4EC4,
0.011304630000000,,0x75EB,
0.011311140000000,,0x44FF,
0.011317640000000,,0x49E0,
0.011324150000000,,0x0A33,
0.011330650000000,,0x3C25,
0.011337150000000,,0x3931,
0.011343660000000,,0x09F2,
0.011350160000000,,0x7D11,
0.011356670000000,,0x3C1D,
0.011363170000000,,0x7DBF,
0.011369680000000,,0x0D48,
0.011376180000000,,0x3D1C,
0.011382680000000,,0x34A9,
0.011389190000000,,0x372A,
0.011395690000000,,0x6673,
0.011402200000000,,0x519D,
0.011408700000000,,0x1643,
0.011415200000000,,0x1DB5,
0.011421710000000,,0x0D6D,
0.011428210000000,,0x171E,
0.011434720000000,,0x7793,
0.011441220000000,,0x0ABD,
0.011447720000000,,0x0DCB,
0.011454230000000,,0x2665,
0.011460730000000,,0x40CD,
0.011467240000000,,0x4F6B,
0.011473740000000,,0x49EE,
0.011480250000000,,0x7D75,
0.011486750000000,,0x1FE5,
0.011493260000000,,0x07FC,
0.011499760000000,,0x3874,
0.011506260000000,,0x63A7,
0.011512770000000,,0x62C7,
0.011519270000000,,0x2290,
0.011525780000000,,0x7E7C,
0.011532280000000,,0x5D66,
0.011538790000000,,0x351D,
0.011545290000000,,0x12CB,
0.011551790000000,,0x4C44,
0.011558300000000,,0x38F8,
0.011564800000000,,0x0715,
0.011571310000000,,0x33F5,
0.011577810000000,,0x0D0B,
0.011584320000000,,0x25FC,
0.011590820000000,,0x00FD,
0.011597330000000,,0x6DAE,
0.011603830000000,,0x5847,
0.011610330000000,,0x2F81,
0.011616840000000,,0x4AE9,
0.011623340000000,,0x48B0,
0.011629850000000,,0x0EC4,
0.011636350000000,,0x138E,
0.011642860000000,,0x2611,
0.011649360000000,,0x272E,
0.011655870000000,,0x1998,
0.011662370000000,,0x3036,
0.011668870000000,,0x5D25,
0.011675380000000,,0x2DFD,
0.011681880000000,,0x269F,
0.011688390000000,,0x16C0,
0.011694890000000,,0x06CC,
0.011701400000000,,0x7909,
0.011707900000000,,0x6F5F,
0.011714400000000,,0x580E,
0.011720910000000,,0x2655,
0.011727410000000,,0x046D,
0.011733920000000,,0x3C2C,
0.011740420000000,,0x75D4,
0.011746920000000,,0x3BD2,
0.011753430000000,,0x5CBA,
0.011759930000000,,0x5558,
0.011766440000000,,0x6C52,
0.011772940000000,,0x7CFF,
0.011779450000000,,0x4DA4,
0.011785950000000,,0x3E07,
0.011792450000000,,0x676D,
0.011798960000000,,0x671D,
0.011805460000000,,0x668C,
0.011811970000000,,0x696F,
0.011818470000000,,0x0062,
0.011824980000000,,0x5490,
0.011831480000000,,0x2E7E,
0.011837980000000,,0x77C6,
0.011844490000000,,0x212E,
0.011850990000000,,0x4112,
0.011857500000000,,0x72FF,
0.011864000000000,,0x7F87,
0.011870510000000,,0x427D,
0.011877010000000,,0x46D8,
0.011883520000000,,0x7943,
0.011890020000000,,0x3B5A,
0.011896520000000,,0x5E7A,
0.011903030000000,,0x5D7A,
0.011909530000000,,0x531C,
0.011916030000000,,0x53DD,
0.011922540000000,,0x58C9,
0.011929040000000,,0x1E6F,
0.011935550000000,,0x55BD,
0.011942050000000,,0x018F,
0.011948550000000,,0x3CBE,
0.011955060000000,,0x667D,
0.011961560000000,,0x26DB,
0.011968070000000,,0x3583,
0.011974570000000,,0x2378,
0.011981080000000,,0x3CEB,
0.011987580000000,,0x09A8,
0.011994080000000,,0x2949,
0.012000590000000,,0x5592,
0.012007090000000,,0x7EFF,
0.012013600000000,,0x461F,
0.012020100000000,,0x4179,
0.012026610000000,,0x6A8A,
0.012033110000000,,0x63D9,
0.012039610000000,,0x1410,
0.012046120000000,,0x0EB3,
0.012052620000000,,0x29BC,
0.012059130000000,,0x3812,
0.012065630000000,,0x5145,
0.012072140000000,,0x15A9,
0.012078640000000,,0x4583,
0.012085140000000,,0x2BF0,
0.012091650000000,,0x5482,
0.012098150000000,,0x3F39,
0.012104660000000,,0x1510,
0.012111160000000,,0x0B6E,
0.012117670000000,,0x5603,
0.012124170000000,,0x3EE1,
0.012130680000000,,0x1327,
0.012137180000000,,0x2CE7,
0.012143680000000,,0x766D,
0.012150190000000,,0x3F1F,
0.012156690000000,,0x62C3,
0.012163200000000,,0x00A4,
0.012169700000000,,0x6427,
0.012176210000000,,0x7938,
0.012182710000000,,0x2372,
0.012189220000000,,0x2DDF,
0.012195720000000,,0x7378,
0.012202230000000,,0x0751,
0.012208730000000,,0x10B6,
0.012215230000000,,0x28BF,
0.012221740000000,,0x601E,
0.012228240000000,,0x660A,
0.012234750000000,,0x1CE9,
0.012241250000000,,0x2B80,
0.012247760000000,,0x5513,
0.012254260000000,,0x30DA,
0.012260770000000,,0x7C1D,
0.012267270000000,,0x5F9C,
0.012273780000000,,0x2CED,
0.012280280000000,,0x6759,
0.012286780000000,,0x45CF,
0.012293290000000,,0x4CDB,
0.012299790000000,,0x4580,
0.012306300000000,,0x3267,
0.012312800000000,,0x5F39,
0.012319310000000,,0x0401,
0.012325810000000,,0x5BBC,
0.012332310000000,,0x3B21,
0.012338820000000,,0x4652,
0.012345320000000,,0x2EDF,
0.012351830000000,,0x7D1E,
0.012358330000000,,0x0790,
0.012364840000000,,0x1BA2,
0.012371340000000,,0x6E19,
0.012377840000000,,0x2BCC,
0.012384350000000,,0x3238,
0.012390850000000,,0x21D8,
0.012397360000000,,0x7143,
0.012403860000000,,0x15B5,
0.012410360000000,,0x2382,
0.012416870000000,,0x6AE6,
0.012423370000000,,0x400F,
0.012429880000000,,0x19AE,
0.012436380000000,,0x47B8,
0.012442890000000,,0x3914,
0.012449390000000,,0x67B6,
0.012455890000000,,0x7D60,
0.012462400000000,,0x3501,
0.012468900000000,,0x74CA,
0.012475410000000,,0x0D52,
0.012481910000000,,0x2C75,
0.012488410000000,,0x2182,
0.012494920000000,,0x615D,
0.012501420000000,,0x3F71,
0.012507930000000,,0x1449,
0.012514430000000,,0x437C,
0.012520930000000,,0x4B88,
0.012527440000000,,0x006A,
0.012533940000000,,0x54BE,
0.012540450000000,,0x5983,
0.012546950000000,,0x0BF1,
0.012553450000000,,0x6F3D,
0.012559960000000,,0x48D8,
0.012566460000000,,0x4B60,
0.012572970000000,,0x4720,
0.012579470000000,,0x7FCF,
0.012585980000000,,0x4324,
0.012592480000000,,0x0ECA,
0.012598990000000,,0x64C8,
0.012605490000000,,0x05D1,
0.012611990000000,,0x19E3,
0.012618500000000,,0x281E,
0.012625000000000,,0x2E80,
0.012631510000000,,0x03FF,
0.012638010000000,,0x72D2,
0.012644520000000,,0x55AB,
0.012651020000000,,0x76BA,
0.012657520000000,,0x0778,
0.012664030000000,,0x5CE8,
0.012670530000000,,0x4568,
0.012677040000000,,0x316B,
0.012683540000000,,0x3703,
0.012690050000000,,0x2A2D,
0.012696550000000,,0x3C4A,
0.012703050000000,,0x4736,
0.012709560000000,,0x4CBC,
0.012716060000000,,0x3BA9,
0.012722570000000,,0x00D4,
0.012729070000000,,0x65B6,
0.012735580000000,,0x76DB,
0.012742080000000,,0x4A7F,
0.012748580000000,,0x792D,
0.012755090000000,,0x0996,
0.012761590000000,,0x5EE9,
0.012768100000000,,0x465E,
0.012774600000000,,0x4883,
0.012781110000000,,0x53F3,
0.012787610000000,,0x6B72,
0.012794120000000,,0x2113,
0.012800620000000,,0x2F25,
0.012807120000000,,0x6A88,
0.012813630000000,,0x72C3,
0.012820130000000,,0x193D,
0.012826640000000,,0x5C9C,
0.012833140000000,,0x228B,
0.012839650000000,,0x6798,
0.012846150000000,,0x4EDB,
0.012852650000000,,0x0A7D,
0.012859160000000,,0x0E52,
0.012865660000000,,0x6655,
0.012872170000000,,0x6208,
0.012878670000000,,0x5EC2,
0.012885170000000,,0x1B1A,
0.012891680000000,,0x2879,
0.012898180000000,,0x50A9,
0.012904690000000,,0x314C,
0.012911190000000,,0x485D,
0.012917690000000,,0x2771,
0.012924200000000,,0x6779,
0.012930700000000,,0x4574,
0.012937210000000,,0x132C,
0.012943710000000,,0x355E,
0.012950210000000,,0x0A2B,
0.012956720000000,,0x7810,
0.012963220000000,,0x627C,
0.012969730000000,,0x3921,
0.012976230000000,,0x4DE9,
0.012982730000000,,0x51A1,
0.012989240000000,,0x70F9,
0.012995740000000,,0x0354,
0.013002250000000,,0x693E,
0.013008750000000,,0x09C5,
0.013015260000000,,0x0212,
0.013021760000000,,0x5EBA,
0.013028260000000,,0x5EE3,
0.013034770000000,,0x132C,
0.013041270000000,,0x7118,
0.013047780000000,,0x4960,
0.013054280000000,,0x4C9B,
0.013060790000000,,0x00B1,
0.013067290000000,,0x4EC3,
0.013073790000000,,0x0A0E,
0.013080300000000,,0x1654,
0.013086800000000,,0x620D,
0.013093310000000,,0x303D,
0.013099810000000,,0x449C,
0.013106320000000,,0x51BB,
0.013112820000000,,0x6190,
0.013119330000000,,0x167F,
0.013125830000000,,0x3F49,
0.013132330000000,,0x50C7,
0.013138840000000,,0x47C6,
0.013145340000000,,0x0B85,
0.013151850000000,,0x08DE,
0.013158350000000,,0x1E2B,
0.013164860000000,,0x32B8,
0.013171360000000,,0x6770,
0.013177870000000,,0x4DD7,
0.013184370000000,,0x6247,
0.013190880000000,,0x207E,
0.013197380000000,,0x01A3,
0.013203890000000,,0x1E1F,
0.013210390000000,,0x542C,
0.013216890000000,,0x0E6C,
0.013223400000000,,0x55B3,
0.013229900000000,,0x328F,
0.013236410000000,,0x5C35,
0.013242910000000,,0x6C3B,
0.013249420000000,,0x7590,
0.013255920000000,,0x5CD7,
0.013262420000000,,0x3A45,
0.013268930000000,,0x2431,
0.013275430000000,,0x6868,
0.013281940000000,,0x7A5A,
0.013288440000000,,0x7984,
0.013294950000000,,0x0360,
0.013301450000000,,0x0FAA,
0.013307950000000,,0x60D9,
0.013314460000000,,0x1A76,
0.013320960000000,,0x0E72,
0.013327470000000,,0x22A8,
0.013333970000000,,0x7EB4,
0.013340470000000,,0x1A97,
0.013346980000000,,0x419B,
0.013353480000000,,0x78B2,
0.013359990000000,,0x7133,
0.013366490000000,,0x1424,
0.013372990000000,,0x2C61,
0.013379500000000,,0x03EB,
0.013386000000000,,0x14FD,
0.013392510000000,,0x6340,
0.013399010000000,,0x1E00,
0.013405520000000,,0x6FFC,
0.013412020000000,,0x078A,
0.013418520000000,,0x4E8D,
0.013425030000000,,0x3879,
0.013431530000000,,0x4930,
0.013438040000000,,0x09F7,
0.013444540000000,,0x13EE,
0.013451040000000,,0x639B,
0.013457550000000,,0x047D,
0.013464050000000,,0x3C71,
0.013470560000000,,0x1A2F,
0.013477060000000,,0x43BD,
0.013483570000000,,0x409C,
0.013490070000000,,0x46CC,
0.013496580000000,,0x1F6C,
0.013503080000000,,0x0DB1,
0.013509580000000,,0x36C0,
0.013516090000000,,0x35FE,
0.013522590000000,,0x087E,
0.013529100000000,,0x5838,
0.013535600000000,,0x51DB,
0.013542110000000,,0x605C,
0.013548610000000,,0x7667,
0.013555120000000,,0x2E2B,
0.013561620000000,,0x1813,
0.013568120000000,,0x2EBC,
0.013574630000000,,0x2103,
0.013581130000000,,0x2F78,
0.013587640000000,,0x0573,
0.013594140000000,,0x0AAC,
0.013600650000000,,0x051B,
0.013607150000000,,0x4F08,
0.013613660000000,,0x51B5,
0.013620160000000,,0x16D6,
0.013626660000000,,0x35BF,
0.013633170000000,,0x0184,
0.013639670000000,,0x6141,
0.013646180000000,,0x5970,
0.013652680000000,,0x555F,
0.013659180000000,,0x57F1,
0.013665690000000,,0x6D1F,
0.013672190000000,,0x52C2,
0.013678700000000,,0x66C4,
0.013685200000000,,0x6836,
0.013691700000000,,0x4870,
0.013698210000000,,0x491B,
0.013704710000000,,0x10F5,
0.013711220000000,,0x305F,
0.013717720000000,,0x544A,
0.013724220000000,,0x3C8E,
0.013730730000000,,0x22DD,
0.013737230000000,,0x559C,
0.013743730000000,,0x09B9,
0.013750240000000,,0x65DF,
0.013756740000000,,0x7FB4,
0.013763250000000,,0x5B0C,
0.013769750000000,,0x7D6F,
0.013776250000000,,0x4ACA,
0.013782760000000,,0x519C,
0.013789260000000,,0x5A88,
0.013795770000000,,0x5868,
0.013802270000000,,0x50F1,
0.013808780000000,,0x3048,
0.013815280000000,,0x6FB4,
0.013821780000000,,0x4295,
0.013828290000000,,0x45D4,
0.013834790000000,,0x1179,
0.013841300000000,,0x1576,
0.013847800000000,,0x398C,
0.013854300000000,,0x216D,
0.013860810000000,,0x59F2,
0.013867310000000,,0x46AB,
0.013873820000000,,0x2503,
0.013880320000000,,0x7C49,
0.013886830000000,,0x38C4,
0.013893330000000,,0x25E9,
0.013899830000000,,0x6E5F,
0.013906340000000,,0x5DD3,
0.013912840000000,,0x59EA,
0.013919350000000,,0x029E,
0.013925850000000,,0x7E4E,
0.013932360000000,,0x4C9A,
0.013938860000000,,0x083C,
0.013945360000000,,0x4855,
0.013951870000000,,0x6319,
0.013958370000000,,0x53CF,
0.013964880000000,,0x0DC8,
0.013971380000000,,0x3FF2,
0.013977890000000,,0x4B76,
0.013984390000000,,0x7453,
0.013990900000000,,0x0742,
0.013997400000000,,0x4D3A,
0.014003900000000,,0x0FB4,
0.014010410000000,,0x17C2,
0.014016910000000,,0x564D,
0.014023420000000,,0x48D0,
0.014029920000000,,0x0F08,
0.014036430000000,,0x7396,
0.014042930000000,,0x3773,
0.014049430000000,,0x6FFA,
0.014055940000000,,0x70E2,
0.014062440000000,,0x1AB0,
0.014068950000000,,0x7A83,
0.014075450000000,,0x36A5,
0.014081950000000,,0x1E8B,
0.014088460000000,,0x74AB,
0.014094960000000,,0x0413,
0.014101460000000,,0x4AFB,
0.014107970000000,,0x59F7,
0.014114470000000,,0x6C12,
0.014120980000000,,0x39CE,
0.014127480000000,,0x3100,
0.014133990000000,,0x6B30,
0.014140490000000,,0x7538,
0.014146990000000,,0x5EAC,
0.014153500000000,,0x6D90,
0.014160000000000,,0x6BA1,
0.014166510000000,,0x7F06,
0.014173010000000,,0x481E,
0.014179520000000,,0x3F91,
0.014186020000000,,0x532D,
0.014192520000000,,0x1FF0,
0.014199030000000,,0x2D18,
0.014205530000000,,0x4B42,
0.014212040000000,,0x5681,
0.014218540000000,,0x2D15,
0.014225040000000,,0x61D5,
0.014231550000000,,0x3DB1,
0.014238050000000,,0x1C6B,
0.014244560000000,,0x7C32,
0.014251060000000,,0x64AA,
0.014257560000000,,0x1507,
0.014264070000000,,0x74D6,
0.014270570000000,,0x6B53,
0.014277080000000,,0x6D63,
0.014283580000000,,0x350F,
0.014290080000000,,0x47CA,
0.014296590000000,,0x6DD9,
0.014303090000000,,0x2633,
0.014309600000000,,0x72C9,
0.014316100000000,,0x0809,
0.014322610000000,,0x264C,
0.014329110000000,,0x0C93,
0.014335610000000,,0x22BC,
0.014342120000000,,0x189B,
0.014348620000000,,0x2C7C,
0.014355130000000,,0x2921,
0.014361630000000,,0x1036,
0.014368140000000,,0x2A51,
0.014374640000000,,0x1FC1,
0.014381150000000,,0x2573,
0.014387650000000,,0x7DD8,
0.014394150000000,,0x3727,
0.014400660000000,,0x4CE4,
0.014407160000000,,0x3AAD,
0.014413670000000,,0x273D,
0.014420170000000,,0x0052,
0.014426680000000,,0x5476,
0.014433180000000,,0x1E72,
0.014439690000000,,0x7F77,
0.014446190000000,,0x0544,
0.014452690000000,,0x75AF,
0.014459200000000,,0x67BC,
0.014465700000000,,0x6C54,
0.014472210000000,,0x4FD1,
0.014478710000000,,0x5AD2,
0.014485220000000,,0x4876,
0.014491720000000,,0x7A35,
0.014498220000000,,0x0783,
0.014504730000000,,0x462E,
0.014511230000000,,0x4912,
0.014517740000000,,0x5C10,
0.014524240000000,,0x027F,
0.014530750000000,,0x75E1,
0.014537250000000,,0x55CB,
0.014543760000000,,0x3330,
0.014550260000000,,0x242B,
0.014556770000000,,0x7901,
0.014563270000000,,0x6F71,
0.014569770000000,,0x2FF3,
0.014576280000000,,0x5A62,
0.014582780000000,,0x4A7E,
0.014589290000000,,0x35E6,
0.014595790000000,,0x4C4B,
0.014602300000000,,0x0375,
0.014608800000000,,0x6108,
0.014615310000000,,0x50A4,
0.014621810000000,,0x1BDB,
0.014628320000000,,0x236D,
0.014634820000000,,0x160F,
0.014641320000000,,0x7A9E,
0.014647830000000,,0x1C6F,
0.014654330000000,,0x1A40,
0.014660840000000,,0x3DBA,
0.014667340000000,,0x05D2,
0.014673850000000,,0x0074,
0.014680350000000,,0x23A5,
0.014686860000000,,0x15B8,
0.014693360000000,,0x4D53,
0.014699870000000,,0x429D,
0.014706370000000,,0x45FA,
0.014712870000000,,0x6684,
0.014719380000000,,0x6941,
0.014725880000000,,0x779F,
0.014732390000000,,0x28A7,
0.014738890000000,,0x606D,
0.014745400000000,,0x7E0C,
0.014751900000000,,0x18B1,
0.014758410000000,,0x79B5,
0.014764910000000,,0x4F4D,
0.014771420000000,,0x7A7B,
0.014777920000000,,0x35F4,
0.014784430000000,,0x194A,
0.014790930000000,,0x22E8,
0.014797440000000,,0x7FC3,
0.014803940000000,,0x2578,
0.014810450000000,,0x2027,
0.014816950000000,,0x082A,
0.014823450000000,,0x3F60,
0.014829960000000,,0x58DF,
0.014836460000000,,0x695A,
0.014842970000000,,0x6E7B,
0.014849470000000,,0x3B1A,
0.014855980000000,,0x5F0D,
0.014862480000000,,0x6295,
0.014868990000000,,0x32A0,
0.014875490000000,,0x2345,
0.014881990000000,,0x169A,
0.014888500000000,,0x5294,
0.014895000000000,,0x1086,
0.014901510000000,,0x6C1F,
0.014908010000000,,0x1359,
0.014914520000000,,0x5A30,
0.014921020000000,,0x5A4E,
0.014927520000000,,0x68DF,
0.014934030000000,,0x07B7,
0.014940530000000,,0x64FC,
0.014947040000000,,0x6345,
0.014953540000000,,0x70FF,
0.014960050000000,,0x307A,
0.014966550000000,,0x7E48,
0.014973060000000,,0x7FB4,
0.014979560000000,,0x1F4A,
0.014986060000000,,0x3E24,
0.014992570000000,,0x7E41,
0.014999070000000,,0x3351,
0.015005580000000,,0x2D6A,
0.015012080000000,,0x1F8F,
0.015018590000000,,0x1704,
0.015025090000000,,0x22BC,
0.015031600000000,,0x5CDD,
0.015038100000000,,0x6F37,
0.015044600000000,,0x1DAA,
0.015051110000000,,0x72FB,
0.015057610000000,,0x5DB3,
0.015064120000000,,0x5826,
0.015070620000000,,0x6286,
0.015077130000000,,0x6F2C,
0.015083630000000,,0x044E,
0.015090140000000,,0x6146,
0.015096640000000,,0x62D3,
0.015103150000000,,0x44BF,
0.015109650000000,,0x4897,
0.015116150000000,,0x35DC,
0.015122660000000,,0x5D99,
0.015129160000000,,0x49A9,
0.015135670000000,,0x47A1,
0.015142170000000,,0x31EA,
0.015148680000000,,0x7926,
0.015155180000000,,0x102F,
0.015161690000000,,0x22AF,
0.015168190000000,,0x0151,
0.015174690000000,,0x483C,
0.015181200000000,,0x6A76,
0.015187700000000,,0x42BC,
0.015194210000000,,0x098A,
0.015200710000000,,0x7CAE,
0.015207220000000,,0x4403,
0.015213720000000,,0x6885,
0.015220230000000,,0x17A9,
0.015226730000000,,0x4E38,
0.015233240000000,,0x548E,
0.015239740000000,,0x5965,
0.015246240000000,,0x3BFD,
0.015252750000000,,0x678C,
0.015259250000000,,0x6CB2,
0.015265760000000,,0x7FDD,
0.015272260000000,,0x5263,
0.015278770000000,,0x6C1C,
0.015285270000000,,0x4E88,
0.015291780000000,,0x12C0,
0.015298280000000,,0x55FD,
0.015304780000000,,0x44BE,
0.015311290000000,,0x401A,
0.015317790000000,,0x334A,
0.015324300000000,,0x348E,
0.015330800000000,,0x0C32,
0.015337310000000,,0x2864,
0.015343810000000,,0x3E25,
0.015350310000000,,0x76CC,
0.015356820000000,,0x35C7,
0.015363320000000,,0x447D,
0.015369830000000,,0x5A14,
0.015376330000000,,0x78C1,
0.015382830000000,,0x2D73,
0.015389340000000,,0x5337,
0.015395840000000,,0x4ADF,
0.015402350000000,,0x7B78,
0.015408850000000,,0x29BE,
0.015415350000000,,0x6D4E,
0.015421860000000,,0x1F23,
0.015428360000000,,0x730D,
0.015434870000000,,0x2C79,
0.015441370000000,,0x0398,
0.015447870000000,,0x0CFB,
0.015454380000000,,0x6718,
0.015460880000000,,0x4C35,
0.015467390000000,,0x75A2,
0.015473890000000,,0x4D2B,
0.015480390000000,,0x0764,
0.015486900000000,,0x7EAF,
0.015493400000000,,0x4735,
0.015499910000000,,0x116D,
0.015506410000000,,0x7359,
0.015512920000000,,0x0F67,
0.015519420000000,,0x49D7,
0.015525920000000,,0x3176,
0.015532430000000,,0x1DC9,
0.015538930000000,,0x2EE6,
0.015545440000000,,0x755B,
0.015551940000000,,0x46F7,
0.015558450000000,,0x0633,
0.015564950000000,,0x41FB,
0.015571450000000,,0x797E,
0.015577960000000,,0x112B,
0.015584460000000,,0x0546,
0.015590970000000,,0x64B5,
0.015597470000000,,0x6A91,
0.015603980000000,,0x3E7B,
0.015610480000000,,0x44E6,
0.015616980000000,,0x0558,
0.015623490000000,,0x57E8,
0.015629990000000,,0x65E1,
0.015636500000000,,0x4C52,
0.015643000000000,,0x0B8B,
0.015649510000000,,0x7F98,
0.015656010000000,,0x3DEB,
0.015662510000000,,0x0C75,
0.015669020000000,,0x56F6,
0.015675520000000,,0x5361,
0.015682020000000,,0x3C9D,
0.015688530000000,,0x7F51,
0.015695030000000,,0x7297,
0.015701540000000,,0x7E65,
0.015708040000000,,0x5598,
0.015714540000000,,0x2B8D,
0.015721050000000,,0x7F84,
0.015727550000000,,0x5BEA,
0.015734060000000,,0x4D63,
0.015740560000000,,0x427B,
0.015747060000000,,0x75F6,
0.015753570000000,,0x6E35,
0.015760070000000,,0x4D2B,
0.015766580000000,,0x4322,
0.015773080000000,,0x3DE4,
0.015779580000000,,0x73BE,
0.015786090000000,,0x73A0,
0.015792590000000,,0x04BB,
0.015799100000000,,0x4880,
0.015805600000000,,0x0E22,
0.015812110000000,,0x2382,
0.015818610000000,,0x2EA0,
0.015825120000000,,0x0344,
0.015831620000000,,0x2D25,
0.015838120000000,,0x2575,
0.015844630000000,,0x4EF6,
0.015851130000000,,0x2051,
0.015857640000000,,0x3A95,
0.015864140000000,,0x27F5,
0.015870640000000,,0x47A3,
0.015877150000000,,0x20F0,
0.015883650000000,,0x740B,
0.015890160000000,,0x4200,
0.015896660000000,,0x2998,
0.015903170000000,,0x5EDB,
0.015909670000000,,0x57A2,
0.015916170000000,,0x75A2,
0.015922680000000,,0x096D,
0.015929180000000,,0x442F,
0.015935690000000,,0x4A24,
0.015942190000000,,0x25F8,
0.015948700000000,,0x668F,
0.015955200000000,,0x34BE,
0.015961700000000,,0x4892,
0.015968210000000,,0x5B23,
0.015974710000000,,0x021F,
0.015981220000000,,0x306B,
0.015987720000000,,0x7698,
0.015994230000000,,0x16D9,
0.016000730000000,,0x0E32,
0.016007240000000,,0x6799,
0.016013740000000,,0x0210,
0.016020250000000,,0x4FA0,
0.016026750000000,,0x53CE,
0.016033260000000,,0x4103,
0.016039760000000,,0x7A2F,
0.016046260000000,,0x16EA,
0.016052770000000,,0x5305,
0.016059270000000,,0x1F65,
0.016065780000000,,0x0512,
0.016072280000000,,0x47AB,
0.016078790000000,,0x20DE,
0.016085290000000,,0x03F6,
0.016091800000000,,0x3E37,
0.016098300000000,,0x678B,
0.016104800000000,,0x5711,
0.016111310000000,,0x6E3D,
0.016117810000000,,0x4D05,
0.016124320000000,,0x34DF,
0.016130820000000,,0x41D3,
0.016137330000000,,0x3DAD,
0.016143830000000,,0x7A6A,
0.016150330000000,,0x3D24,
0.016156840000000,,0x7027,
0.016163340000000,,0x3390,
0.016169850000000,,0x267E,
0.016176350000000,,0x5929,
0.016182860000000,,0x5CD6,
0.016189360000000,,0x768E,
0.016195870000000,,0x61EC,
0.016202370000000,,0x35F4,
0.016208870000000,,0x5D0C,
0.016215380000000,,0x61A3,
0.016221880000000,,0x4B48,
0.016228390000000,,0x47B5,
0.016234890000000,,0x57C5,
0.016241400000000,,0x4FCD,
0.016247900000000,,0x7895,
0.016254400000000,,0x4A2B,
0.016260910000000,,0x5A33,
0.016267410000000,,0x43D9,
0.016273920000000,,0x6364,
0.016280420000000,,0x3C8F,
0.016286930000000,,0x2A50,
0.016293430000000,,0x530A,
0.016299930000000,,0x60AE,
0.016306440000000,,0x2044,
0.016312940000000,,0x1071,
0.016319450000000,,0x54C3,
0.016325950000000,,0x7285,
0.016332460000000,,0x6F22,
0.016338960000000,,0x374E,
0.016345460000000,,0x01CD,
0.016351970000000,,0x6895,
0.016358470000000,,0x17F4,
0.016364980000000,,0x21C3,
0.016371480000000,,0x2CE1,
0.016377980000000,,0x4543,
0.016384490000000,,0x2869,
0.016390990000000,,0x14B2,
0.016397500000000,,0x1DFC,
0.016404000000000,,0x04B9,
0.016410510000000,,0x599A,
0.016417010000000,,0x030F,
0.016423520000000,,0x71AD,
0.016430020000000,,0x2597,
0.016436520000000,,0x5CCE,
0.016443030000000,,0x32BB,
0.016449530000000,,0x3AA1,
0.016456040000000,,0x0527,
0.016462540000000,,0x6DF4,
0.016469050000000,,0x0C1F,
0.016475550000000,,0x460E,
0.016482050000000,,0x49A9,
0.016488560000000,,0x03E7,
0.016495060000000,,0x72A1,
0.016501570000000,,0x4DAD,
0.016508070000000,,0x72E2,
0.016514580000000,,0x554D,
0.016521080000000,,0x46B6,
0.016527580000000,,0x0FC9,
0.016534090000000,,0x7882,
0.016540590000000,,0x71D5,
0.016547100000000,,0x2428,
0.016553600000000,,0x24D0,
0.016560110000000,,0x2781,
0.016566610000000,,0x2040,
0.016573120000000,,0x7603,
0.016579620000000,,0x0DD3,
0.016586130000000,,0x6250,
0.016592630000000,,0x1B80,
0.016599140000000,,0x7FB8,
0.016605640000000,,0x7916,
0.016612140000000,,0x10C9,
0.016618650000000,,0x12A3,
0.016625150000000,,0x09E0,
0.016631660000000,,0x6C56,
0.016638160000000,,0x5ECB,
0.016644670000000,,0x57FF,
0.016651170000000,,0x1A59,
0.016657680000000,,0x7102,
0.016664180000000,,0x5809,
0.016670680000000,,0x59B0,
0.016677190000000,,0x56C6,
0.016683690000000,,0x17C1,
0.016690200000000,,0x4FDA,
0.016696700000000,,0x436B,
0.016703210000000,,0x3430,
0.016709710000000,,0x3D3A,
0.016716220000000,,0x073C,
0.016722720000000,,0x7FAB,
0.016729220000000,,0x60DC,
0.016735730000000,,0x7489,
0.016742230000000,,0x51F4,
0.016748740000000,,0x5B6A,
0.016755240000000,,0x4F8D,
0.016761750000000,,0x3DA4,
0.016768250000000,,0x368F,
0.016774750000000,,0x0F04,
0.016781260000000,,0x518C,
0.016787760000000,,0x5AD5,
0.016794270000000,,0x3793,
0.016800770000000,,0x289E,
0.016807280000000,,0x2C6E,
0.016813780000000,,0x7C20,
0.016820280000000,,0x31AB,
0.016826790000000,,0x349A,
0.016833290000000,,0x6A1D,
0.016839800000000,,0x1E8F,
0.016846300000000,,0x569F,
0.016852810000000,,0x1E48,
0.016859310000000,,0x6EA5,
0.016865810000000,,0x4F98,
0.016872320000000,,0x5306,
0.016878820000000,,0x06F2,
0.016885330000000,,0x0EA9,
0.016891830000000,,0x7C93,
0.016898330000000,,0x6E72,
0.016904840000000,,0x33B9,
0.016911340000000,,0x2E66,
0.016917850000000,,0x77B5,
0.016924350000000,,0x3928,
0.016930850000000,,0x454A,
0.016937360000000,,0x20CA,
0.016943860000000,,0x65D9,
0.016950370000000,,0x08DC,
0.016956870000000,,0x0F31,
0.016963370000000,,0x3F95,
0.016969880000000,,0x355F,
0.016976380000000,,0x46E0,
0.016982880000000,,0x3DCD,
0.016989390000000,,0x3FE0,
0.016995890000000,,0x1E77,
0.017002400000000,,0x55CE,
0.017008900000000,,0x1989,
0.017015410000000,,0x38E6,
0.017021910000000,,0x3448,
0.017028410000000,,0x3C85,
0.017034920000000,,0x7F22,
0.017041420000000,,0x6A91,
0.017047930000000,,0x7A3D,
0.017054430000000,,0x07AD,
0.017060930000000,,0x31D3,
0.017067440000000,,0x3525,
0.017073940000000,,0x1203,
0.017080450000000,,0x0BB5,
0.017086950000000,,0x4C7E,
0.017093450000000,,0x6D6C,
0.017099960000000,,0x0E82,
0.017106460000000,,0x21D7,
0.017112970000000,,0x0E88,
0.017119470000000,,0x30E3,
0.017125980000000,,0x7458,
0.017132480000000,,0x1EFB,
0.017138990000000,,0x317C,
0.017145490000000,,0x48BB,
0.017151990000000,,0x177D,
0.017158500000000,,0x6FC8,
0.017165000000000,,0x611E,
0.017171510000000,,0x2791,
0.017178010000000,,0x201D,
0.017184520000000,,0x19F8,
0.017191020000000,,0x75BC,
0.017197530000000,,0x7E76,
0.017204030000000,,0x0814,
0.017210540000000,,0x0C86,
0.017217040000000,,0x0858,
0.017223540000000,,0x6BAD,
0.017230050000000,,0x195A,
0.017236550000000,,0x66F3,
0.017243060000000,,0x5373,
0.017249560000000,,0x699C,
0.017256060000000,,0x5ECC,
0.017262570000000,,0x6C5C,
0.017269070000000,,0x0BB9,
0.017275580000000,,0x6E64,
0.017282080000000,,0x00CA,
0.017288580000000,,0x56EB,
0.017295090000000,,0x79AB,
0.017301590000000,,0x3856,
0.017308100000000,,0x3640,
0.017314600000000,,0x7356,
0.017321100000000,,0x34EA,
0.017327610000000,,0x2FCA,
0.017334110000000,,0x5227,
0.017340620000000,,0x0B19,
0.017347120000000,,0x2877,
0.017353620000000,,0x63A9,
0.017360130000000,,0x51C7,
0.017366630000000,,0x421B,
0.017373140000000,,0x743A,
0.017379640000000,,0x0E2D,
0.017386140000000,,0x5C49,
0.017392650000000,,0x0BF6,
0.017399150000000,,0x549E,
0.017405660000000,,0x5938,
0.017412160000000,,0x5406,
0.017418660000000,,0x1FE3,
0.017425170000000,,0x7094,
0.017431670000000,,0x6C49,
0.017438180000000,,0x215D,
0.017444680000000,,0x1D52,
0.017451180000000,,0x35EC,
0.017457690000000,,0x1939,
0.017464190000000,,0x3AEE,
0.017470700000000,,0x7B9B,
0.017477200000000,,0x774D,
0.017483700000000,,0x3A79,
0.017490210000000,,0x428B,
0.017496710000000,,0x7689,
0.017503220000000,,0x1E09,
0.017509720000000,,0x675F,
0.017516230000000,,0x76E1,
0.017522730000000,,0x5BAD,
0.017529230000000,,0x33F1,
0.017535740000000,,0x2F3F,
0.017542240000000,,0x3FA7,
0.017548750000000,,0x24A3,
0.017555250000000,,0x7BC1,
0.017561760000000,,0x6753,
0.017568260000000,,0x10BD,
0.017574760000000,,0x7540,
0.017581270000000,,0x5F13,
0.017587770000000,,0x158E,
0.017594280000000,,0x7E9B,
0.017600780000000,,0x65E7,
0.017607280000000,,0x3B3A,
0.017613790000000,,0x5FB6,
0.017620290000000,,0x3D62,
0.017626800000000,,0x427E,
0.017633300000000,,0x1B09,
0.017639800000000,,0x31B3,
0.017646310000000,,0x34E9,
0.017652810000000,,0x721B,
0.017659320000000,,0x1AD7,
0.017665820000000,,0x04AA,
0.017672330000000,,0x0416,
0.017678830000000,,0x2404,
0.017685340000000,,0x0671,
0.017691840000000,,0x15D0,
0.017698340000000,,0x08F7,
0.017704850000000,,0x1633,
0.017711350000000,,0x1C24,
0.017717860000000,,0x028E,
0.017724360000000,,0x7E13,
0.017730870000000,,0x2361,
0.017737370000000,,0x7053,
0.017743870000000,,0x5473,
0.017750380000000,,0x708D,
0.017756880000000,,0x20F1,
0.017763390000000,,0x7C86,
0.017769890000000,,0x4496,
0.017776400000000,,0x408F,
0.017782900000000,,0x1B40,
0.017789410000000,,0x3867,
0.017795910000000,,0x7A6D,
0.017802420000000,,0x0687,
0.017808920000000,,0x61C7,
0.017815420000000,,0x2CF6,
0.017821930000000,,0x7EBD,
0.017828430000000,,0x5672,
0.017834940000000,,0x73BB,
0.017841440000000,,0x5919,
0.017847940000000,,0x1876,
0.017854450000000,,0x05C9,
0.017860950000000,,0x5DD6,
0.017867460000000,,0x7353,
0.017873960000000,,0x1E53,
0.017880470000000,,0x3307,
0.017886970000000,,0x1F6E,
0.017893470000000,,0x58ED,
0.017899980000000,,0x78A6,
0.017906480000000,,0x535A,
0.017912980000000,,0x6184,
0.017919490000000,,0x7050,
0.017925990000000,,0x09A2,
0.017932500000000,,0x387D,
0.017939000000000,,0x2F42,
0.017945510000000,,0x50E7,
0.017952010000000,,0x033B,
0.017958510000000,,0x1739,
0.017965020000000,,0x4C8B,
0.017971520000000,,0x44AA,
0.017978030000000,,0x6273,
0.017984530000000,,0x46EA,
0.017991030000000,,0x68BF,
0.017997540000000,,0x067B,
0.018004040000000,,0x04E4,
0.018010550000000,,0x7227,
0.018017050000000,,0x382B,
0.018023560000000,,0x5900,
0.018030060000000,,0x54CE,
0.018036570000000,,0x5812,
0.018043070000000,,0x0412,
0.018049570000000,,0x0630,
0.018056080000000,,0x1C2A,
0.018062580000000,,0x318E,
0.018069090000000,,0x1E98,
0.018075590000000,,0x2927,
0.018082100000000,,0x2318,
0.018088600000000,,0x3D27,
0.018095110000000,,0x69B0,
0.018101610000000,,0x382B,
0.018108120000000,,0x1D46,
0.018114620000000,,0x1785,
0.018121130000000,,0x6C99,
0.018127630000000,,0x66DF,
0.018134130000000,,0x71D2,
0.018140640000000,,0x5BCD,
0.018147140000000,,0x767B,
0.018153650000000,,0x0C6C,
0.018160150000000,,0x1A4E,
0.018166660000000,,0x0EBA,
0.018173160000000,,0x6559,
0.018179660000000,,0x0A32,
0.018186170000000,,0x70EE,
0.018192670000000,,0x7CEC,
0.018199180000000,,0x546E,
0.018205680000000,,0x5A47,
0.018212180000000,,0x243A,
0.018218690000000,,0x3597,
0.018225190000000,,0x4557,
0.018231700000000,,0x0A00,
0.018238200000000,,0x6112,
0.018244700000000,,0x41CD,
0.018251210000000,,0x0EF0,
0.018257710000000,,0x751A,
0.018264220000000,,0x4F0D,
0.018270720000000,,0x3F4A,
0.018277220000000,,0x4950,
0.018283730000000,,0x4C7D,
0.018290230000000,,0x30BD,
0.018296740000000,,0x4672,
0.018303240000000,,0x2E64,
0.018309750000000,,0x22E9,
0.018316250000000,,0x774E,
0.018322750000000,,0x23EE,
0.018329260000000,,0x4930,
0.018335760000000,,0x4DB1,
0.018342270000000,,0x50A5,
0.018348770000000,,0x5710,
0.018355280000000,,0x66B0,
0.018361780000000,,0x4B93,
0.018368290000000,,0x5DC8,
0.018374790000000,,0x0448,
0.018381300000000,,0x5268,
0.018387800000000,,0x75A5,
0.018394300000000,,0x32CE,
0.018400810000000,,0x55CF,
0.018407310000000,,0x5542,
0.018413820000000,,0x7D3B,
0.018420320000000,,0x69D4,
0.018426830000000,,0x1BD3,
0.018433330000000,,0x6705,
0.018439840000000,,0x22B9,
0.018446340000000,,0x3222,
0.018452840000000,,0x30B1,
0.018459350000000,,0x6468,
0.018465850000000,,0x43C2,
0.018472360000000,,0x7A80,
0.018478860000000,,0x2F32,
0.018485370000000,,0x1530,
0.018491870000000,,0x4F93,
0.018498380000000,,0x4ABF,
0.018504880000000,,0x7AB4,
0.018511380000000,,0x49A6,
0.018517890000000,,0x7C2C,
0.018524390000000,,0x57F7,
0.018530900000000,,0x1A77,
0.018537400000000,,0x06FF,
0.018543910000000,,0x243E,
0.018550410000000,,0x17A3,
0.018556910000000,,0x5F0C,
0.018563420000000,,0x2E5E,
0.018569920000000,,0x777D,
0.018576430000000,,0x7ED9,
0.018582930000000,,0x31CC,
0.018589440000000,,0x4AB3,
0.018595940000000,,0x58AE,
0.018602440000000,,0x2400,
0.018608950000000,,0x2445,
0.018615450000000,,0x0F8B,
0.018621960000000,,0x2CA9,
0.018628460000000,,0x005C,
0.018634970000000,,0x2330,
0.018641470000000,,0x3DB2,
0.018647980000000,,0x41BA,
0.018654480000000,,0x34C2,
0.018660990000000,,0x6B19,
0.018667490000000,,0x3966,
0.018673990000000,,0x337B,
0.018680500000000,,0x3CE5,
0.018687000000000,,0x3AA8,
0.018693510000000,,0x49C2,
0.018700010000000,,0x5FD4,
0.018706520000000,,0x2DB4,
0.018713020000000,,0x2F4B,
0.018719520000000,,0x5844,
0.018726030000000,,0x7250,
0.018732530000000,,0x0219,
0.018739040000000,,0x4703,
0.018745540000000,,0x22A5,
0.018752050000000,,0x5423,
0.018758550000000,,0x71A7,
0.018765060000000,,0x70E5,
0.018771560000000,,0x6555,
0.018778070000000,,0x2828,
0.018784570000000,,0x1D48,
0.018791070000000,,0x2485,
0.018797580000000,,0x0C12,
0.018804080000000,,0x6C99,
0.018810590000000,,0x2299,
0.018817090000000,,0x3299,
0.018823600000000,,0x6F46,
0.018830100000000,,0x14B6,
0.018836600000000,,0x7B8E,
0.018843110000000,,0x5DA9,
0.018849610000000,,0x494F,
0.018856120000000,,0x77AD,
0.018862620000000,,0x395B,
0.018869120000000,,0x5D4C,
0.018875630000000,,0x2492,
0.018882130000000,,0x37EC,
0.018888640000000,,0x1282,
0.018895140000000,,0x4590,
0.018901650000000,,0x767C,
0.018908150000000,,0x7389,
0.018914650000000,,0x48E5,
0.018921160000000,,0x2557,
0.018927660000000,,0x5F57,
0.018934170000000,,0x728B,
0.018940670000000,,0x1864,
0.018947180000000,,0x148E,
0.018953680000000,,0x3F00,
0.018960190000000,,0x5913,
0.018966690000000,,0x0942,
0.018973190000000,,0x7F19,
0.018979700000000,,0x73CE,
0.018986200000000,,0x3677,
0.018992710000000,,0x4813,
0.018999210000000,,0x1506,
0.019005720000000,,0x381D,
0.019012220000000,,0x2E8E,
0.019018730000000,,0x30FF,
0.019025230000000,,0x1259,
0.019031740000000,,0x5FED,
0.019038240000000,,0x25F1,
0.019044740000000,,0x6E2C,
0.019051250000000,,0x45D5,
0.019057750000000,,0x5DB2,
0.019064260000000,,0x50AB,
0.019070760000000,,0x6410,
0.019077270000000,,0x063B,
0.019083770000000,,0x41D5,
0.019090270000000,,0x0E83,
0.019096780000000,,0x6D1C,
0.019103280000000,,0x4B55,
0.019109790000000,,0x6D7F,
0.019116290000000,,0x530E,
0.019122800000000,,0x06DC,
0.019129300000000,,0x7954,
0.019135800000000,,0x00A4,
0.019142310000000,,0x2061,
0.019148810000000,,0x3A73,
0.019155320000000,,0x17F9,
0.019161820000000,,0x4F12,
0.019168330000000,,0x049A,
0.019174830000000,,0x40B6,
0.019181330000000,,0x5743,
0.019187840000000,,0x3A4B,
0.019194340000000,,0x5377,
0.019200840000000,,0x4BA8,
0.019207350000000,,0x4497,
0.019213850000000,,0x4802,
0.019220360000000,,0x1DD6,
0.019226860000000,,0x5170,
0.019233370000000,,0x3FF6,
0.019239870000000,,0x6942,
0.019246370000000,,0x6E08,
0.019252880000000,,0x231C,
0.019259380000000,,0x5B55,
0.019265890000000,,0x30A0,
0.019272390000000,,0x28FE,
0.019278900000000,,0x69E4,
0.019285400000000,,0x5F73,
0.019291900000000,,0x1442,
0.019298410000000,,0x1E83,
0.019304910000000,,0x7485,
0.019311420000000,,0x73EE,
0.019317920000000,,0x36CC,
0.019324430000000,,0x17E4,
0.019330930000000,,0x65D8,
0.019337440000000,,0x0051,
0.019343940000000,,0x09A7,
0.019350450000000,,0x5682,
0.019356950000000,,0x70C4,
0.019363450000000,,0x2925,
0.019369960000000,,0x3202,
0.019376460000000,,0x300A,
0.019382970000000,,0x3B9F,
0.019389470000000,,0x331C,
0.019395980000000,,0x42CC,
0.019402480000000,,0x081B,
0.019408990000000,,0x734D,
0.019415490000000,,0x2D0E,
0.019422000000000,,0x3C77,
0.019428500000000,,0x6D47,
0.019435010000000,,0x1780,
0.019441510000000,,0x0266,
0.019448020000000,,0x3959,
0.019454520000000,,0x0810,
0.019461020000000,,0x6AF4,
0.019467530000000,,0x5148,
0.019474030000000,,0x7B78,
0.019480540000000,,0x6DF8,
0.019487040000000,,0x2E05,
0.019493550000000,,0x2BA8,
0.019500050000000,,0x11C0,
0.019506550000000,,0x5B9B,
0.019513060000000,,0x447F,
0.019519560000000,,0x4B0E,
0.019526070000000,,0x75EC,
0.019532570000000,,0x7F5C,
0.019539070000000,,0x5800,
0.019545580000000,,0x1555,
0.019552080000000,,0x64E6,
0.019558590000000,,0x366A,
0.019565090000000,,0x269F,
0.019571590000000,,0x5286,
0.019578100000000,,0x4587,
0.019584600000000,,0x4D82,
0.019591110000000,,0x0D92,
0.019597610000000,,0x2FEC,
0.019604110000000,,0x61B2,
0.019610620000000,,0x4398,
0.019617120000000,,0x2ED8,
0.019623630000000,,0x46BD,
0.019630130000000,,0x1670,
0.019636640000000,,0x04C4,
0.019643140000000,,0x36DA,
0.019649640000000,,0x2497,
0.019656150000000,,0x1D55,
0.019662650000000,,0x0E4F,
0.019669160000000,,0x08D9,
0.019675660000000,,0x2588,
0.019682160000000,,0x2358,
0.019688670000000,,0x7816,
0.019695170000000,,0x1514,
0.019701680000000,,0x6D1C,
0.019708180000000,,0x0F13,
0.019714690000000,,0x2E34,
0.019721190000000,,0x6785,
0.019727700000000,,0x6411,
0.019734200000000,,0x0EB6,
0.019740710000000,,0x4743,
0.019747210000000,,0x6794,
0.019753720000000,,0x2887,
0.019760220000000,,0x2490,
0.019766720000000,,0x62B0,
0.019773230000000,,0x5CE4,
0.019779730000000,,0x2334,
0.019786240000000,,0x1F86,
0.019792740000000,,0x5BE1,
0.019799250000000,,0x109C,
0.019805750000000,,0x7D76,
0.019812260000000,,0x0672,
0.019818760000000,,0x0C47,
0.019825270000000,,0x034C,
0.019831770000000,,0x2D0B,
0.019838280000000,,0x5288,
0.019844780000000,,0x32C1,
0.019851280000000,,0x6E42,
0.019857790000000,,0x335F,
0.019864290000000,,0x1E6A,
0.019870800000000,,0x7F04,
0.019877300000000,,0x1D42,
0.019883810000000,,0x71F7,
0.019890310000000,,0x3589,
0.019896820000000,,0x760A,
0.019903320000000,,0x0570,
0.019909820000000,,0x133B,
0.019916330000000,,0x0EA0,
0.019922830000000,,0x7430,
0.019929340000000,,0x1F19,
0.019935840000000,,0x2699,
0.019942350000000,,0x25EE,
0.019948850000000,,0x11BA,
0.019955350000000,,0x0F78,
0.019961860000000,,0x7207,
0.019968360000000,,0x3890,
0.019974870000000,,0x06F7,
0.019981370000000,,0x2410,
0.019987880000000,,0x605E,
0.019994380000000,,0x233B,
0.020000890000000,,0x604D,
0.020007390000000,,0x7EB7,
0.020013900000000,,0x4746,
0.020020400000000,,0x096B,
0.020026900000000,,0x7701,
0.020033410000000,,0x5D52,
0.020039910000000,,0x5389,
0.020046420000000,,0x7BD7,
0.020052920000000,,0x5420,
0.020059430000000,,0x6830,
0.020065930000000,,0x7B5E,
0.020072440000000,,0x5E6D,
0.020078940000000,,0x6684,
0.020085450000000,,0x2D07,
0.020091950000000,,0x34D4,
0.020098460000000,,0x1C2C,
0.020104960000000,,0x02A0,
0.020111470000000,,0x09EE,
0.020117970000000,,0x5F56,
0.020124470000000,,0x3E40,
0.020130980000000,,0x5DB9,
0.020137480000000,,0x4912,
0.020143990000000,,0x1856,
0.020150490000000,,0x4134,
0.020157000000000,,0x416A,
0.020163500000000,,0x3706,
0.020170010000000,,0x44D2,
0.020176510000000,,0x63CC,
0.020183010000000,,0x3EF4,
0.020189520000000,,0x7D85,
0.020196020000000,,0x1C9A,
0.020202530000000,,0x77C0,
0.020209030000000,,0x1200,
0.020215540000000,,0x5664,
0.020222040000000,,0x048E,
0.020228550000000,,0x62DF,
0.020235050000000,,0x22E3,
0.020241550000000,,0x667A,
0.020248060000000,,0x593E,
0.020254560000000,,0x6728,
0.020261070000000,,0x0895,
0.020267570000000,,0x06E5,
0.020274080000000,,0x7111,
0.020280580000000,,0x41C3,
0.020287080000000,,0x3DF0,
0.020293590000000,,0x1591,
0.020300090000000,,0x454B,
0.020306600000000,,0x6C01,
0.020313100000000,,0x2004,
0.020319610000000,,0x5540,
0.020326110000000,,0x2867,
0.020332620000000,,0x27B2,
0.020339120000000,,0x7D77,
0.020345630000000,,0x0EFF,
0.020352130000000,,0x0AD1,
0.020358630000000,,0x6A5B,
0.020365140000000,,0x6890,
0.020371640000000,,0x3D4D,
0.020378150000000,,0x3D0E,
0.020384650000000,,0x61A8,
0.020391160000000,,0x16B7,
0.020397660000000,,0x78B8,
0.020404170000000,,0x2441,
0.020410670000000,,0x2DBF,
0.020417180000000,,0x36F2,
0.020423680000000,,0x2402,
0.020430190000000,,0x355F,
0.020436690000000,,0x02A6,
0.020443200000000,,0x7E86,
0.020449700000000,,0x0B6B,
0.020456200000000,,0x7CBA,
0.020462710000000,,0x222C,
0.020469210000000,,0x5E6E,
0.020475720000000,,0x7F13,
0.020482220000000,,0x26BC,
0.020488730000000,,0x0FEC,
0.020495230000000,,0x5280,
0.020501740000000,,0x32EF,
0.020508240000000,,0x19BF,
0.020514750000000,,0x4F68,
0.020521250000000,,0x5079,
0.020527760000000,,0x76CE,
0.020534260000000,,0x24DD,
0.020540770000000,,0x4950,
0.020547270000000,,0x083B,
0.020553780000000,,0x73F6,
0.020560280000000,,0x72F9,
0.020566790000000,,0x4CA9,
0.020573290000000,,0x550B,
0.020579800000000,,0x30A9,
0.020586300000000,,0x641B,
0.020592810000000,,0x5BC4,
0.020599310000000,,0x7ED8,
0.020605820000000,,0x7D07,
0.020612320000000,,0x0F6E,
0.020618830000000,,0x0532,
0.020625330000000,,0x0356,
0.020631830000000,,0x3C62,
0.020638340000000,,0x47A3,
0.020644840000000,,0x64B6,
0.020651350000000,,0x3740,
0.020657850000000,,0x768B,
0.020664360000000,,0x4B55,
0.020670860000000,,0x2939,
0.020677370000000,,0x1045,
0.020683870000000,,0x3257,
0.020690380000000,,0x1B99,
0.020696880000000,,0x7746,
0.020703380000000,,0x6786,
0.020709890000000,,0x7D86,
0.020716390000000,,0x050D,
0.020722900000000,,0x7C7B,
0.020729400000000,,0x2938,
0.020735910000000,,0x18C8,
0.020742410000000,,0x34C1,
0.020748920000000,,0x728E,
0.020755420000000,,0x32DD,
0.020761930000000,,0x0843,
0.020768430000000,,0x7249,
0.020774940000000,,0x0AE7,
0.020781440000000,,0x5993,
0.020787950000000,,0x4FEA,
0.020794450000000,,0x438D,
0.020800960000000,,0x043C,
0.020807460000000,,0x358B,
0.020813970000000,,0x2356,
0.020820470000000,,0x4B16,
0.020826970000000,,0x759F,
0.020833480000000,,0x675A,
0.020839980000000,,0x5C58,
0.020846490000000,,0x4760,
0.020852990000000,,0x7EB8,
0.020859500000000,,0x7CCB,
0.020866000000000,,0x6F76,
0.020872510000000,,0x1450,
0.020879010000000,,0x4B82,
0.020885520000000,,0x5518,
0.020892020000000,,0x6D25,
0.020898520000000,,0x4310,
0.020905030000000,,0x2C18,
0.020911530000000,,0x4E9F,
0.020918040000000,,0x293E,
0.020924540000000,,0x2BE6,
0.020931050000000,,0x23B7,
0.020937550000000,,0x04FF,
0.020944060000000,,0x2F85,
0.020950560000000,,0x68DD,
0.020957070000000,,0x52EB,
0.020963570000000,,0x2A9A,
0.020970070000000,,0x05E1,
0.020976580000000,,0x1905,
0.020983080000000,,0x1812,
0.020989590000000,,0x2631,
0.020996090000000,,0x2795,
0.021002600000000,,0x466F,
0.021009100000000,,0x40E8,
0.021015610000000,,0x6569,
0.021022110000000,,0x0AD4,
0.021028610000000,,0x40E2,
0.021035120000000,,0x745D,
0.021041620000000,,0x7004,
0.021048130000000,,0x6EFA,
0.021054630000000,,0x3179,
0.021061140000000,,0x2644,
0.021067640000000,,0x48FB,
0.021074150000000,,0x160A,
0.021080650000000,,0x5027,
0.021087160000000,,0x00A2,
0.021093660000000,,0x5709,
0.021100160000000,,0x6E4E,
0.021106670000000,,0x5503,
0.021113170000000,,0x3087,
0.021119680000000,,0x13E6,
0.021126180000000,,0x27F3,
0.021132690000000,,0x30CB,
0.021139190000000,,0x74CD,
0.021145700000000,,0x36F1,
0.021152200000000,,0x3D95,
0.021158710000000,,0x3EE4,
0.021165210000000,,0x399E,
0.021171710000000,,0x302A,
0.021178220000000,,0x3B24,
0.021184720000000,,0x6CEB,
0.021191230000000,,0x3212,
0.021197730000000,,0x3057,
0.021204240000000,,0x5464,
0.021210740000000,,0x4B73,
0.021217240000000,,0x5EEA,
0.021223750000000,,0x1B8F,
0.021230250000000,,0x0073,
0.021236760000000,,0x5C40,
0.021243260000000,,0x4713,
0.021249770000000,,0x66BE,
0.021256270000000,,0x7893,
0.021262770000000,,0x3D43,
0.021269280000000,,0x0E0E,
0.021275780000000,,0x0123,
0.021282290000000,,0x1CF1,
0.021288790000000,,0x2BF3,
0.021295300000000,,0x4D15,
0.021301800000000,,0x3482,
0.021308310000000,,0x2E28,
0.021314810000000,,0x45C2,
0.021321310000000,,0x664C,
0.021327820000000,,0x2EB0,
0.021334320000000,,0x0319,
0.021340830000000,,0x42DE,
0.021347330000000,,0x5D1A,
0.021353840000000,,0x52D0,
0.021360340000000,,0x33C5,
0.021366850000000,,0x49AB,
0.021373350000000,,0x56BB,
0.021379850000000,,0x3CC7,
0.021386360000000,,0x2B09,
0.021392860000000,,0x1B18,
0.021399370000000,,0x7D25,
0.021405870000000,,0x1ECF,
0.021412380000000,,0x57E8,
0.021418880000000,,0x21A7,
0.021425390000000,,0x0F19,
0.021431890000000,,0x3F00,
0.021438400000000,,0x1D55,
0.021444900000000,,0x4A09,
0.021451400000000,,0x4B92,
0.021457910000000,,0x1103,
0.021464410000000,,0x4195,
0.021470920000000,,0x0FF4,
0.021477420000000,,0x52F3,
0.021483920000000,,0x2AE9,
0.021490430000000,,0x1DE7,
0.021496930000000,,0x1D5D,
0.021503440000000,,0x4A27,
0.021509940000000,,0x3C6F,
0.021516440000000,,0x6D34,
0.021522950000000,,0x0F86,
0.021529450000000,,0x063E,
0.021535960000000,,0x6B6C,
0.021542460000000,,0x124E,
0.021548970000000,,0x2055,
0.021555470000000,,0x18A1,
0.021561970000000,,0x3DAE,
0.021568480000000,,0x63FD,
0.021574980000000,,0x369F,
0.021581490000000,,0x4B1F,
0.021587990000000,,0x7D3C,
0.021594490000000,,0x1631,
0.021601000000000,,0x4978,
0.021607500000000,,0x4CE8,
0.021614010000000,,0x18B7,
0.021620510000000,,0x4A9B,
0.021627020000000,,0x583B,
0.021633520000000,,0x0C0A,
0.021640020000000,,0x28AC,
0.021646530000000,,0x79D4,
0.021653030000000,,0x024A,
0.021659540000000,,0x5FBE,
0.021666040000000,,0x790A,
0.021672550000000,,0x76C8,
0.021679050000000,,0x53B5,
0.021685560000000,,0x1D6D,
0.021692060000000,,0x4AC1,
0.021698560000000,,0x0C63,
0.021705070000000,,0x6585,
0.021711570000000,,0x2BEC,
0.021718080000000,,0x3283,
0.021724580000000,,0x7E2F,
0.021731090000000,,0x019D,
0.021737590000000,,0x2DF9,
0.021744100000000,,0x04AB,
0.021750600000000,,0x0C9B,
0.021757110000000,,0x2292,
0.021763610000000,,0x6F66,
0.021770110000000,,0x504B,
0.021776620000000,,0x6732,
0.021783120000000,,0x19FC,
0.021789630000000,,0x13CE,
0.021796130000000,,0x2766,
0.021802640000000,,0x18C1,
0.021809140000000,,0x7824,
0.021815650000000,,0x40AE,
0.021822150000000,,0x1376,
0.021828660000000,,0x6106,
0.021835160000000,,0x63A4,
0.021841670000000,,0x7B50,
0.021848170000000,,0x292B,
0.021854670000000,,0x4544,
0.021861180000000,,0x13CA,
0.021867680000000,,0x0552,
0.021874190000000,,0x029A,
0.021880690000000,,0x5C7A,
0.021887200000000,,0x56C1,
0.021893700000000,,0x2C62,
0.021900200000000,,0x5E3A,
0.021906710000000,,0x5C0D,
0.021913210000000,,0x6CF3,
0.021919720000000,,0x3261,
0.021926220000000,,0x2851,
0.021932730000000,,0x503C,
0.021939230000000,,0x1946,
0.021945730000000,,0x44B4,
0.021952240000000,,0x512E,
0.021958740000000,,0x499A,
0.021965250000000,,0x1A96,
0.021971750000000,,0x4916,
0.021978250000000,,0x7E24,
0.021984760000000,,0x1824,
0.021991260000000,,0x51BF,
0.021997770000000,,0x43A4,
0.022004270000000,,0x0C24,
0.022010780000000,,0x1B17,
0.022017280000000,,0x46A8,
0.022023790000000,,0x78D2,
0.022030290000000,,0x34B9,
0.022036790000000,,0x3777,
0.022043300000000,,0x0988,
0.022049800000000,,0x29F2,
0.022056310000000,,0x0A65,
0.022062810000000,,0x0E21,
0.022069320000000,,0x7E53,
0.022075820000000,,0x6650,
0.022082330000000,,0x0CF7,
0.022088830000000,,0x0144,
0.022095330000000,,0x62D8,
0.022101840000000,,0x1940,
0.022108340000000,,0x779A,
0.022114850000000,,0x4658,
0.022121350000000,,0x3FEB,
0.022127860000000,,0x07CE,
0.022134360000000,,0x2988,
0.022140870000000,,0x5E86,
0.022147370000000,,0x3859,
0.022153880000000,,0x0DCD,
0.022160380000000,,0x154B,
0.022166880000000,,0x57BB,
0.022173390000000,,0x391A,
0.022179890000000,,0x54B6,
0.022186400000000,,0x1DEB,
0.022192900000000,,0x3F47,
0.022199400000000,,0x2781,
0.022205910000000,,0x6406,
0.022212410000000,,0x3548,
0.022218920000000,,0x3958,
0.022225420000000,,0x009D,
0.022231930000000,,0x6C62,
0.022238430000000,,0x385F,
0.022244940000000,,0x3EE3,
0.022251440000000,,0x023D,
0.022257950000000,,0x21CA,
0.022264450000000,,0x2442,
0.022270960000000,,0x3428,
0.022277460000000,,0x3D49,
0.022283970000000,,0x1F3A,
0.022290470000000,,0x7BF3,
0.022296970000000,,0x32E9,
0.022303480000000,,0x6ED7,
0.022309980000000,,0x1B55,
0.022316490000000,,0x1283,
0.022322990000000,,0x095B,
0.022329500000000,,0x33A1,
0.022336000000000,,0x2E15,
0.022342500000000,,0x6FB3,
0.022349010000000,,0x3D70,
0.022355510000000,,0x177F,
0.022362020000000,,0x3A94,
0.022368520000000,,0x2F78,
0.022375030000000,,0x4135,
0.022381530000000,,0x49E7,
0.022388030000000,,0x3190,
0.022394540000000,,0x2DC5,
0.022401040000000,,0x2657,
0.022407550000000,,0x5131,
0.022414050000000,,0x724A,
0.022420560000000,,0x1370,
0.022427060000000,,0x5228,
0.022433560000000,,0x74D2,
0.022440070000000,,0x0D21,
0.022446570000000,,0x3473,
0.022453080000000,,0x25DA,
0.022459580000000,,0x3368,
0.022466090000000,,0x252F,
0.022472590000000,,0x5EE8,
0.022479090000000,,0x0A95,
0.022485600000000,,0x0D5E,
0.022492100000000,,0x0E6F,
0.022498610000000,,0x4C24,
0.022505110000000,,0x3934,
0.022511620000000,,0x670D,
0.022518120000000,,0x2297,
0.022524620000000,,0x45DF,
0.022531130000000,,0x4C86,
0.022537630000000,,0x2A7B,
0.022544140000000,,0x4A08,
0.022550640000000,,0x431F,
0.022557150000000,,0x1795,
0.022563650000000,,0x2882,
0.022570160000000,,0x4A6F,
0.022576660000000,,0x3D36,
0.022583160000000,,0x2526,
0.022589670000000,,0x120D,
0.022596170000000,,0x38B5,
0.022602680000000,,0x2CF5,
0.022609180000000,,0x672A,
0.022615690000000,,0x5DC9,
0.022622190000000,,0x4883,
0.022628690000000,,0x17B5,
0.022635200000000,,0x2839,
0.022641700000000,,0x1598,
0.022648210000000,,0x4DE8,
0.022654710000000,,0x1D6A,
0.022661220000000,,0x3524,
0.022667720000000,,0x5EC8,
0.022674220000000,,0x4E68,
0.022680730000000,,0x11E2,
0.022687230000000,,0x4A3A,
0.022693740000000,,0x16A5,
0.022700240000000,,0x69FF,
0.022706750000000,,0x4697,
0.022713250000000,,0x07FF,
0.022719760000000,,0x21E3,
0.022726260000000,,0x681C,
0.022732770000000,,0x59FF,
0.022739270000000,,0x6C3C,
0.022745780000000,,0x4E33,
0.022752280000000,,0x4D37,
0.022758790000000,,0x2523,
0.022765290000000,,0x7CF2,
0.022771790000000,,0x6733,
0.022778300000000,,0x5537,
0.022784800000000,,0x5613,
0.022791310000000,,0x7AFA,
0.022797810000000,,0x3F97,
0.022804320000000,,0x6003,
0.022810820000000,,0x0886,
0.022817330000000,,0x5B69,
0.022823830000000,,0x561A,
0.022830330000000,,0x361F,
0.022836840000000,,0x0DB7,
0.022843340000000,,0x41A8,
0.022849850000000,,0x61C3,
0.022856350000000,,0x4A84,
0.022862860000000,,0x27AD,
0.022869360000000,,0x46A7,
0.022875870000000,,0x0719,
0.022882370000000,,0x11EF,
0.022888870000000,,0x60AD,
0.022895380000000,,0x7D95,
0.022901880000000,,0x5881,
0.022908390000000,,0x5B70,
0.022914890000000,,0x5EE4,
0.022921400000000,,0x288F,
0.022927900000000,,0x60F8,
0.022934410000000,,0x5606,
0.022940910000000,,0x1458,
0.022947420000000,,0x0FEA,
0.022953920000000,,0x61AE,
0.022960420000000,,0x2599,
0.022966930000000,,0x6FCE,
0.022973430000000,,0x5230,
0.022979940000000,,0x30E7,
0.022986440000000,,0x566C,
0.022992950000000,,0x04A0,
0.022999450000000,,0x1522,
0.023005960000000,,0x5ED4,
0.023012460000000,,0x2869,
0.023018960000000,,0x50F4,
0.023025470000000,,0x5EB7,
0.023031970000000,,0x3032,
0.023038480000000,,0x3B57,
0.023044980000000,,0x74ED,
0.023051490000000,,0x364A,
0.023057990000000,,0x6262,
0.023064490000000,,0x4E3A,
0.023071000000000,,0x01D2,
0.023077500000000,,0x1703,
0.023084010000000,,0x5D59,
0.023090510000000,,0x0E76,
0.023097020000000,,0x44DA,
0.023103520000000,,0x27A4,
0.023110020000000,,0x0A42,
0.023116530000000,,0x3539,
0.023123030000000,,0x3044,
0.023129540000000,,0x09E8,
0.023136040000000,,0x6C78,
0.023142540000000,,0x2936,
0.023149050000000,,0x2BC8,
0.023155550000000,,0x544A,
0.023162060000000,,0x78C8,
0.023168560000000,,0x6196,
0.023175060000000,,0x6117,
0.023181570000000,,0x6B74,
0.023188070000000,,0x123D,
0.023194580000000,,0x3853,
0.023201080000000,,0x1CF9,
0.023207580000000,,0x6F9B,
0.023214090000000,,0x79A3,
0.023220590000000,,0x7C3E,
0.023227100000000,,0x02F6,
0.023233600000000,,0x3BEA,
0.023240110000000,,0x1834,
0.023246610000000,,0x51E2,
0.023253120000000,,0x2C5F,
0.023259620000000,,0x744B,
0.023266120000000,,0x0731,
0.023272630000000,,0x553C,
0.023279130000000,,0x0BEC,
0.023285640000000,,0x45F7,
0.023292140000000,,0x4C13,
0.023298650000000,,0x0271,
0.023305150000000,,0x46E1,
0.023311660000000,,0x3540,
0.023318160000000,,0x3976,
0.023324670000000,,0x7760,
0.023331170000000,,0x1055,
0.023337680000000,,0x764C,
0.023344180000000,,0x3729,
0.023350680000000,,0x3BA2,
0.023357190000000,,0x196D,
0.023363690000000,,0x19F0,
0.023370200000000,,0x31D4,
0.023376700000000,,0x4AC0,
0.023383210000000,,0x40A8,
0.023389710000000,,0x2058,
0.023396220000000,,0x7670,
0.023402720000000,,0x15D5,
0.023409230000000,,0x6608,
0.023415730000000,,0x49B5,
0.023422240000000,,0x65E6,
0.023428740000000,,0x33B7,
0.023435240000000,,0x5920,
0.023441750000000,,0x5475,
0.023448250000000,,0x07E5,
0.023454760000000,,0x74CC,
0.023461260000000,,0x3E7C,
0.023467770000000,,0x3B03,
0.023474270000000,,0x57F3,
0.023480780000000,,0x7C05,
0.023487280000000,,0x5FEF,
0.023493780000000,,0x34EB,
0.023500290000000,,0x6301,
0.023506790000000,,0x17FA,
0.023513300000000,,0x5685,
0.023519800000000,,0x0F21,
0.023526310000000,,0x7B8E,
0.023532810000000,,0x19EF,
0.023539310000000,,0x0A04,
0.023545820000000,,0x4326,
0.023552320000000,,0x5B96,
0.023558830000000,,0x2AAE,
0.023565330000000,,0x6375,
0.023571830000000,,0x7019,
0.023578340000000,,0x0076,
0.023584840000000,,0x76F9,
0.023591350000000,,0x5BDE,
0.023597850000000,,0x2BF7,
0.023604350000000,,0x2B67,
0.023610860000000,,0x6D92,
0.023617360000000,,0x3EFD,
0.023623870000000,,0x3160,
0.023630370000000,,0x2EBA,
0.023636880000000,,0x566B,
0.023643380000000,,0x7B45,
0.023649880000000,,0x4789,
0.023656390000000,,0x7539,
0.023662890000000,,0x1267,
0.023669400000000,,0x284D,
0.023675900000000,,0x363D,
0.023682400000000,,0x5850,
0.023688910000000,,0x5039,
0.023695410000000,,0x77B9,
0.023701920000000,,0x1B32,
0.023708420000000,,0x28EC,
0.023714930000000,,0x78A3,
0.023721430000000,,0x3DA5,
0.023727930000000,,0x3E02,
0.023734440000000,,0x0992,
0.023740940000000,,0x389B,
0.023747450000000,,0x1F4E,
0.023753950000000,,0x5856,
0.023760460000000,,0x2751,
0.023766960000000,,0x2384,
0.023773470000000,,0x59C8,
0.023779970000000,,0x5779,
0.023786470000000,,0x6FDF,
0.023792980000000,,0x5AE0,
0.023799480000000,,0x598A,
0.023805990000000,,0x4714,
0.023812490000000,,0x5D1D,
0.023819000000000,,0x6973,
0.023825500000000,,0x2225,
0.023832000000000,,0x56CD,
0.023838510000000,,0x0E78,
0.023845010000000,,0x339C,
0.023851520000000,,0x0464,
0.023858020000000,,0x348F,
0.023864530000000,,0x04BF,
0.023871030000000,,0x2EF2,
0.023877540000000,,0x5732,
0.023884040000000,,0x3357,
0.023890550000000,,0x5A02,
0.023897050000000,,0x4BB2,
0.023903550000000,,0x55FE,
0.023910060000000,,0x5D29,
0.023916560000000,,0x4BA1,
0.023923070000000,,0x0872,
0.023929570000000,,0x7A22,
0.023936080000000,,0x3C7D,
0.023942580000000,,0x3835,
0.023949090000000,,0x2E1B,
0.023955590000000,,0x18F5,
0.023962090000000,,0x1EB0,
0.023968600000000,,0x29B2,
0.023975100000000,,0x0B12,
0.023981610000000,,0x31CE,
0.023988110000000,,0x1FEF,
0.023994620000000,,0x16C8,
0.024001120000000,,0x42A4,
0.024007630000000,,0x4DBF,
0.024014130000000,,0x27E3,
0.024020630000000,,0x74D0,
0.024027140000000,,0x587D,
0.024033640000000,,0x7A15,
0.024040150000000,,0x437E,
0.024046650000000,,0x5A92,
0.024053160000000,,0x0D47,
0.024059660000000,,0x0691,
0.024066160000000,,0x52B4,
0.024072670000000,,0x547B,
0.024079170000000,,0x70A3,
0.024085680000000,,0x570C,
0.024092180000000,,0x00B1,
0.024098690000000,,0x0A85,
0.024105190000000,,0x4945,
0.024111700000000,,0x22DF,
0.024118200000000,,0x00C0,
0.024124710000000,,0x47DF,
0.024131210000000,,0x037B,
0.024137720000000,,0x164E,
0.024144220000000,,0x7364,
0.024150730000000,,0x2516,
0.024157230000000,,0x12EB,
0.024163730000000,,0x08B9,
0.024170240000000,,0x2444,
0.024176740000000,,0x4340,
0.024183250000000,,0x6974,
0.024189750000000,,0x5DC0,
0.024196260000000,,0x0466,
0.024202760000000,,0x2595,
0.024209270000000,,0x0992,
0.024215770000000,,0x7CDD,
0.024222280000000,,0x5C05,
0.024228780000000,,0x6CDD,
0.024235280000000,,0x459C,
0.024241790000000,,0x5466,
0.024248290000000,,0x1E2F,
0.024254800000000,,0x108C,
0.024261300000000,,0x7D2B,
0.024267810000000,,0x6989,
0.024274310000000,,0x7428,
0.024280820000000,,0x1F6A,
0.024287320000000,,0x3E9F,
0.024293820000000,,0x21B6,
0.024300330000000,,0x438F,
0.024306830000000,,0x1526,
0.024313340000000,,0x38A6,
0.024319840000000,,0x7179,
0.024326350000000,,0x4021,
0.024332850000000,,0x2A15,
0.024339360000000,,0x78C4,
0.024345860000000,,0x438C,
0.024352360000000,,0x0CB1,
0.024358870000000,,0x331D,
0.024365370000000,,0x4A41,
0.024371880000000,,0x0E8D,
0.024378380000000,,0x1A5A,
0.024384890000000,,0x6895,
0.024391390000000,,0x53B2,
0.024397890000000,,0x6288,
0.024404400000000,,0x186A,
0.024410900000000,,0x278E,
0.024417410000000,,0x5F8B,
0.024423910000000,,0x5355,
0.024430420000000,,0x5A09,
0.024436920000000,,0x164D,
0.024443430000000,,0x6AF3,
0.024449930000000,,0x2EAD,
0.024456430000000,,0x29D3,
0.024462940000000,,0x4615,
0.024469440000000,,0x140B,
0.024475950000000,,0x5311,
0.024482450000000,,0x794A,
0.024488960000000,,0x33F9,
0.024495460000000,,0x2F11,
0.024501970000000,,0x485A,
0.024508470000000,,0x5894,
0.024514970000000,,0x35D2,
0.024521480000000,,0x6E99,
0.024527980000000,,0x2922,
0.024534490000000,,0x4DE7,
0.024540990000000,,0x62A1,
0.024547500000000,,0x1072,
0.024554000000000,,0x0912,
0.024560500000000,,0x3A75,
0.024567010000000,,0x6091,
0.024573510000000,,0x1B2F,
0.024580020000000,,0x4660,
0.024586520000000,,0x3F23,
0.024593030000000,,0x403F,
0.024599530000000,,0x5D0E,
0.024606040000000,,0x34FF,
0.024612540000000,,0x052E,
0.024619050000000,,0x2111,
0.024625550000000,,0x3E3F,
0.024632050000000,,0x67A5,
0.024638560000000,,0x20EC,
0.024645060000000,,0x120A,
0.024651570000000,,0x0316,
0.024658070000000,,0x3D15,
0.024664580000000,,0x784C,
0.024671080000000,,0x050A,
0.024677590000000,,0x47D8,
0.024684090000000,,0x38D8,
0.024690600000000,,0x07AE,
0.024697100000000,,0x6C02,
0.024703610000000,,0x7DD5,
0.024710110000000,,0x1DB0,
0.024716610000000,,0x27D4,
0.024723120000000,,0x0BD3,
0.024729620000000,,0x3ADA,
0.024736130000000,,0x5949,
0.024742630000000,,0x5D1A,
0.024749130000000,,0x1696,
0.024755640000000,,0x708E,
0.024762140000000,,0x7D20,
0.024768650000000,,0x3476,
0.024775150000000,,0x4B25,
0.024781660000000,,0x6CEE,
0.024788160000000,,0x5CED,
0.024794670000000,,0x6FD1,
0.024801170000000,,0x2DA6,
0.024807680000000,,0x7A4A,
0.024814180000000,,0x79D9,
0.024820680000000,,0x6C9B,
0.024827190000000,,0x77C5,
0.024833690000000,,0x7CFF,
0.024840200000000,,0x09E2,
0.024846700000000,,0x7D4C,
0.024853210000000,,0x53E6,
0.024859710000000,,0x05D0,
0.024866220000000,,0x116E,
0.024872720000000,,0x2E88,
0.024879230000000,,0x4797,
0.024885730000000,,0x4664,
0.024892240000000,,0x1D17,
0.024898740000000,,0x5A64,
0.024905240000000,,0x7950,
0.024911750000000,,0x2290,
0.024918250000000,,0x3A3A,
0.024924760000000,,0x1E2D,
0.024931260000000,,0x0196,
0.024937770000000,,0x7006,
0.024944270000000,,0x3BA6,
0.024950780000000,,0x7F1F,
0.024957280000000,,0x40E0,
0.024963790000000,,0x2101,
0.024970290000000,,0x3E62,
0.024976800000000,,0x085E,
0.024983300000000,,0x5883,
0.024989810000000,,0x0E2C,
0.024996310000000,,0x1082,
0.025002820000000,,0x4E2B,
0.025009320000000,,0x0902,
0.025015820000000,,0x7E6E,
0.025022330000000,,0x4C21,
0.025028830000000,,0x57CB,
0.025035340000000,,0x388B,
0.025041840000000,,0x5B55,
0.025048340000000,,0x74E6,
0.025054850000000,,0x6BB5,
0.025061350000000,,0x5D6F,
0.025067860000000,,0x3DBE,
0.025074360000000,,0x63A0,
0.025080860000000,,0x5964,
0.025087370000000,,0x3370,
0.025093870000000,,0x611A,
0.025100380000000,,0x05A5,
0.025106880000000,,0x3A46,
0.025113380000000,,0x3DA6,
0.025119890000000,,0x63D3,
0.025126390000000,,0x4162,
0.025132900000000,,0x3728,
0.025139400000000,,0x332F,
0.025145900000000,,0x1FFB,
0.025152410000000,,0x70E7,
0.025158910000000,,0x744F,
0.025165420000000,,0x2505,
0.025171920000000,,0x4F67,
0.025178430000000,,0x2FB2,
0.025184930000000,,0x5398,
0.025191430000000,,0x7307,
0.025197940000000,,0x3D4D,
0.025204440000000,,0x7948,
0.025210950000000,,0x22E3,
0.025217450000000,,0x223C,
0.025223950000000,,0x1A75,
0.025230460000000,,0x53A3,
0.025236960000000,,0x6A58,
0.025243470000000,,0x7107,
0.025249970000000,,0x36F6,
0.025256480000000,,0x0636,
0.025262980000000,,0x2F04,
0.025269480000000,,0x26F8,
0.025275990000000,,0x68E9,
0.025282490000000,,0x347F,
0.025289000000000,,0x4386,
0.025295500000000,,0x1D85,
0.025302010000000,,0x49CD,
0.025308510000000,,0x6459,
0.025315010000000,,0x4BA9,
0.025321520000000,,0x4C1A,
0.025328020000000,,0x4E94,
0.025334530000000,,0x74C1,
0.025341030000000,,0x14EB,
0.025347540000000,,0x5033,
0.025354040000000,,0x668D,
0.025360550000000,,0x61E2,
0.025367050000000,,0x06F4,
0.025373560000000,,0x3D87,
0.025380060000000,,0x6BE5,
0.025386560000000,,0x1803,
0.025393070000000,,0x2EE1,
0.025399570000000,,0x4EF8,
0.025406080000000,,0x5717,
0.025412580000000,,0x1955,
0.025419090000000,,0x1938,
0.025425590000000,,0x7625,
0.025432100000000,,0x3E46,
0.025438600000000,,0x2AD1,
0.025445100000000,,0x1D2F,
0.025451610000000,,0x5AAC,
0.025458110000000,,0x3EA1,
0.025464620000000,,0x5616,
0.025471120000000,,0x5043,
0.025477630000000,,0x235A,
0.025484130000000,,0x2D4A,
0.025490630000000,,0x5B72,
0.025497140000000,,0x0BB8,
0.025503640000000,,0x66E9,
0.025510150000000,,0x065C,
0.025516650000000,,0x3FFC,
0.025523160000000,,0x3C30,
0.025529660000000,,0x5793,
0.025536170000000,,0x398F,
0.025542670000000,,0x7CBC,
0.025549180000000,,0x1102,
0.025555680000000,,0x4918,
0.025562190000000,,0x0962,
0.025568690000000,,0x3BE4,
0.025575200000000,,0x6F72,
0.025581700000000,,0x7222,
0.025588200000000,,0x1292,
0.025594710000000,,0x45CD,
0.025601210000000,,0x1987,
0.025607720000000,,0x0BE6,
0.025614220000000,,0x54C3,
0.025620730000000,,0x36C3,
0.025627230000000,,0x2C69,
0.025633740000000,,0x03C5,
0.025640240000000,,0x6300,
0.025646750000000,,0x1F77,
0.025653250000000,,0x5013,
0.025659760000000,,0x6636,
0.025666260000000,,0x3E15,
0.025672770000000,,0x762A,
0.025679270000000,,0x05CB,
0.025685780000000,,0x4CCC,
0.025692280000000,,0x7E7E,
0.025698790000000,,0x4C7C,
0.025705290000000,,0x3830,
0.025711800000000,,0x40E4,
0.025718300000000,,0x4773,
0.025724810000000,,0x6772,
0.025731310000000,,0x188B,
0.025737810000000,,0x2C21,
0.025744320000000,,0x46DA,
0.025750820000000,,0x6859,
0.025757330000000,,0x3677,
0.025763830000000,,0x0C55,
0.025770340000000,,0x564D,
0.025776840000000,,0x0C96,
0.025783350000000,,0x4C43,
0.025789850000000,,0x471D,
0.025796350000000,,0x55BE,
0.025802860000000,,0x1818,
0.025809360000000,,0x3705,
0.025815870000000,,0x5D45,
0.025822370000000,,0x6877,
0.025828880000000,,0x05CC,
0.025835380000000,,0x3329,
0.025841890000000,,0x2CD5,
0.025848390000000,,0x6791,
0.025854900000000,,0x023E,
0.025861400000000,,0x385D,
0.025867910000000,,0x2FF9,
0.025874410000000,,0x0F10,
0.025880920000000,,0x73E5,
0.025887420000000,,0x2F75,
0.025893920000000,,0x6BA2,
0.025900430000000,,0x22D7,
0.025906930000000,,0x00EE,
0.025913440000000,,0x3022,
0.025919940000000,,0x7F4C,
0.025926450000000,,0x585D,
0.025932950000000,,0x7AAE,
0.025939460000000,,0x1C89,
0.025945960000000,,0x2A4C,
0.025952460000000,,0x350B,
0.025958970000000,,0x21B8,
0.025965470000000,,0x34C9,
0.025971980000000,,0x36E6,
0.025978480000000,,0x066B,
0.025984990000000,,0x40FF,
0.025991490000000,,0x5E97,
0.025997990000000,,0x74CF,
0.026004500000000,,0x27EB,
0.026011000000000,,0x30B8,
0.026017510000000,,0x6CCB,
0.026024010000000,,0x32A9,
0.026030520000000,,0x6FA0,
0.026037020000000,,0x24BA,
0.026043520000000,,0x733F,
0.026050030000000,,0x79C3,
0.026056530000000,,0x7DF2,
0.026063040000000,,0x62EE,
0.026069540000000,,0x2A88,
0.026076040000000,,0x50E0,
0.026082550000000,,0x3898,
0.026089050000000,,0x06D9,
0.026095560000000,,0x53ED,
0.026102060000000,,0x1C69,
0.026108570000000,,0x6D28,
0.026115070000000,,0x6987,
0.026121580000000,,0x4728,
0.026128080000000,,0x7FE1,
0.026134580000000,,0x34D9,
0.026141090000000,,0x72FD,
0.026147590000000,,0x2ADB,
0.026154100000000,,0x0C1B,
0.026160600000000,,0x207C,
0.026167110000000,,0x10B9,
0.026173610000000,,0x1332,
0.026180120000000,,0x0603,
0.026186620000000,,0x055B,
0.026193130000000,,0x0A39,
0.026199630000000,,0x2D11,
0.026206130000000,,0x43E1,
0.026212640000000,,0x27EA,
0.026219140000000,,0x3835,
0.026225650000000,,0x6A5D,
0.026232150000000,,0x5BBE,
0.026238660000000,,0x2A3B,
0.026245160000000,,0x4B7F,
0.026251660000000,,0x7CF0,
0.026258170000000,,0x7629,
0.026264670000000,,0x581A,
0.026271180000000,,0x043C,
0.026277680000000,,0x71CD,
0.026284190000000,,0x601D,
0.026290690000000,,0x7F9D,
0.026297200000000,,0x1752,
0.026303700000000,,0x10B8,
0.026310210000000,,0x1BBF,
0.026316710000000,,0x0095,
0.026323220000000,,0x6C4C,
0.026329720000000,,0x4FA2,
0.026336230000000,,0x42D4,
0.026342730000000,,0x4C2E,
0.026349230000000,,0x2800,
0.026355740000000,,0x1DDD,
0.026362240000000,,0x0C8F,
0.026368750000000,,0x00FB,
0.026375250000000,,0x1AC6,
0.026381760000000,,0x0C7A,
0.026388260000000,,0x6D7B,
0.026394770000000,,0x357C,
0.026401270000000,,0x5FCC,
0.026407780000000,,0x6981,
0.026414280000000,,0x7406,
0.026420790000000,,0x6897,
0.026427290000000,,0x42A8,
0.026433790000000,,0x6FA5,
0.026440300000000,,0x4A45,
0.026446800000000,,0x2CB9,
0.026453310000000,,0x0001,
0.026459810000000,,0x4CCB,
0.026466320000000,,0x45DD,
0.026472820000000,,0x5D9C,
0.026479330000000,,0x2756,
0.026485830000000,,0x1827,
0.026492340000000,,0x4828,
0.026498840000000,,0x481F,
0.026505340000000,,0x371C,
0.026511850000000,,0x55BB,
0.026518350000000,,0x76E7,
0.026524860000000,,0x6883,
0.026531360000000,,0x2487,
0.026537870000000,,0x594E,
0.026544370000000,,0x22FF,
0.026550880000000,,0x443D,
0.026557380000000,,0x5B63,
0.026563880000000,,0x472E,
0.026570390000000,,0x4CCF,
0.026576890000000,,0x23AF,
0.026583400000000,,0x048C,
0.026589900000000,,0x3783,
0.026596410000000,,0x6C85,
0.026602910000000,,0x00DE,
0.026609420000000,,0x30C4,
0.026615920000000,,0x4F40,
0.026622430000000,,0x50EC,
0.026628930000000,,0x5EC4,
0.026635440000000,,0x2834,
0.026641940000000,,0x3F0F,
0.026648450000000,,0x26D8,
0.026654950000000,,0x2C14,
0.026661450000000,,0x28C3,
0.026667960000000,,0x07D3,
0.026674460000000,,0x4704,
0.026680970000000,,0x1906,
0.026687470000000,,0x45C3,
0.026693980000000,,0x6EC1,
0.026700480000000,,0x2826,
0.026706990000000,,0x6A0E,
0.026713490000000,,0x0745,
0.026720000000000,,0x32DF,
0.026726500000000,,0x5D1F,
0.026733000000000,,0x3C2F,
0.026739510000000,,0x6C43,
0.026746010000000,,0x3069,
0.026752520000000,,0x6782,
0.026759020000000,,0x1BF4,
0.026765530000000,,0x5C1D,
0.026772030000000,,0x6CAE,
0.026778540000000,,0x5D9A,
0.026785040000000,,0x503E,
0.026791540000000,,0x4C1A,
0.026798050000000,,0x0AD2,
0.026804550000000,,0x378A,
0.026811060000000,,0x2060,
0.026817560000000,,0x32FE,
0.026824070000000,,0x116F,
0.026830570000000,,0x2605,
0.026837080000000,,0x4101,
0.026843580000000,,0x2F73,
0.026850090000000,,0x588C,
0.026856590000000,,0x35A1,
0.026863090000000,,0x769F,
0.026869600000000,,0x2D7A,
0.026876100000000,,0x1FD2,
0.026882610000000,,0x78FF,
0.026889110000000,,0x5AD3,
0.026895620000000,,0x40FB,
0.026902120000000,,0x7CA3,
0.026908630000000,,0x6E94,
0.026915130000000,,0x03B5,
0.026921640000000,,0x26D7,
0.026928140000000,,0x53DF,
0.026934640000000,,0x0D95,
0.026941150000000,,0x5009,
0.026947650000000,,0x3319,
0.026954160000000,,0x6875,
0.026960660000000,,0x14D6,
0.026967170000000,,0x3E04,
0.026973670000000,,0x7EFA,
0.026980180000000,,0x6CA6,
0.026986680000000,,0x5DB4,
0.026993190000000,,0x27C3,
0.026999690000000,,0x302D,
0.027006200000000,,0x44C1,
0.027012700000000,,0x3E40,
0.027019210000000,,0x19FF,
0.027025710000000,,0x0A59,
0.027032210000000,,0x2CDD,
0.027038720000000,,0x23F9,
0.027045220000000,,0x3688,
0.027051730000000,,0x70E1,
0.027058230000000,,0x0327,
0.027064740000000,,0x7138,
0.027071240000000,,0x0D9D,
0.027077750000000,,0x5027,
0.027084250000000,,0x44E4,
0.027090760000000,,0x1442,
0.027097260000000,,0x5AC5,
0.027103760000000,,0x37CE,
0.027110270000000,,0x4765,
0.027116770000000,,0x5401,
0.027123280000000,,0x6006,
0.027129780000000,,0x223F,
0.027136290000000,,0x47A4,
0.027142790000000,,0x1B53,
0.027149300000000,,0x65EB,
0.027155800000000,,0x5D66,
0.027162310000000,,0x715B,
0.027168810000000,,0x5180,
0.027175320000000,,0x78CF,
0.027181820000000,,0x5A35,
0.027188320000000,,0x70F7,
0.027194830000000,,0x7412,
0.027201330000000,,0x4AFE,
0.027207840000000,,0x3708,
0.027214340000000,,0x3394,
0.027220850000000,,0x400C,
0.027227350000000,,0x0039,
0.027233860000000,,0x4C03,
0.027240360000000,,0x022C,
0.027246870000000,,0x291A,
0.027253370000000,,0x4D2F,
0.027259880000000,,0x2550,
0.027266380000000,,0x64F4,
0.027272890000000,,0x636B,
0.027279390000000,,0x0702,
0.027285900000000,,0x4C4D,
0.027292400000000,,0x305B,
0.027298900000000,,0x767E,
0.027305410000000,,0x26D5,
0.027311910000000,,0x0683,
0.027318420000000,,0x43F3,
0.027324920000000,,0x36AD,
0.027331430000000,,0x5AE3,
0.027337930000000,,0x401D,
0.027344440000000,,0x4CAF,
0.027350940000000,,0x6625,
0.027357450000000,,0x27DF,
0.027363950000000,,0x126A,
0.027370450000000,,0x469C,
0.027376960000000,,0x1E46,
0.027383460000000,,0x5DA5,
0.027389970000000,,0x2F13,
0.027396470000000,,0x5940,
0.027402980000000,,0x55B9,
0.027409480000000,,0x67FD,
0.027415990000000,,0x65AE,
0.027422490000000,,0x76A8,
0.027428990000000,,0x5279,
0.027435500000000,,0x7D75,
0.027442000000000,,0x5BA3,
0.027448510000000,,0x44B7,
0.027455010000000,,0x0CFF,
0.027461520000000,,0x016A,
0.027468020000000,,0x1525,
0.027474530000000,,0x6577,
0.027481030000000,,0x3989,
0.027487530000000,,0x4F92,
0.027494040000000,,0x0674,
0.027500540000000,,0x3F69,
0.027507050000000,,0x143A,
0.027513550000000,,0x5B7A,
0.027520060000000,,0x4FD0,
0.027526560000000,,0x525F,
0.027533070000000,,0x4EE0,
0.027539570000000,,0x1322,
0.027546080000000,,0x4218,
0.027552580000000,,0x29EB,
0.027559090000000,,0x46DD,
0.027565590000000,,0x53FA,
0.027572090000000,,0x2797,
0.027578600000000,,0x1333,
0.027585100000000,,0x0E8E,
0.027591610000000,,0x03CD,
0.027598110000000,,0x632E,
0.027604620000000,,0x688A,
0.027611120000000,,0x2C24,
0.027617630000000,,0x2825,
0.027624130000000,,0x37DF,
0.027630630000000,,0x4FB5,
0.027637140000000,,0x3D6C,
0.027643640000000,,0x717E,
0.027650150000000,,0x7B82,
0.027656650000000,,0x3BF5,
0.027663150000000,,0x67A2,
0.027669660000000,,0x1B4F,
0.027676160000000,,0x03EA,
0.027682670000000,,0x1C70,
0.027689170000000,,0x65D6,
0.027695680000000,,0x7717,
0.027702180000000,,0x2A67,
0.027708680000000,,0x684F,
0.027715190000000,,0x4142,
0.027721690000000,,0x3793,
0.027728200000000,,0x6CD8,
0.027734700000000,,0x6F25,
0.027741200000000,,0x48AB,
0.027747710000000,,0x5366,
0.027754210000000,,0x4378,
0.027760720000000,,0x2DFA,
0.027767220000000,,0x597A,
0.027773720000000,,0x446B,
0.027780230000000,,0x2D21,
0.027786730000000,,0x4307,
0.027793240000000,,0x17E6,
0.027799740000000,,0x3084,
0.027806250000000,,0x4E37,
0.027812750000000,,0x6F03,
0.027819260000000,,0x3F78,
0.027825760000000,,0x58AC,
0.027832270000000,,0x715C,
0.027838770000000,,0x6A23,
0.027845270000000,,0x692F,
0.027851780000000,,0x4553,
0.027858280000000,,0x2834,
0.027864790000000,,0x7B49,
0.027871290000000,,0x6593,
0.027877800000000,,0x189F,
0.027884300000000,,0x4A0E,
0.027890810000000,,0x7031,
0.027897310000000,,0x00E3,
0.027903820000000,,0x5EF3,
0.027910320000000,,0x5737,
0.027916820000000,,0x5DA8,
0.027923330000000,,0x0584,
0.027929830000000,,0x3270,
0.027936340000000,,0x64C7,
0.027942840000000,,0x7A1A,
0.027949350000000,,0x3CB5,
0.027955850000000,,0x7FC4,
0.027962360000000,,0x5A9D,
0.027968860000000,,0x728C,
0.027975360000000,,0x23C7,
0.027981870000000,,0x056E,
0.027988370000000,,0x2066,
0.027994880000000,,0x01D0,
0.028001380000000,,0x0619,
0.028007890000000,,0x5074,
0.028014390000000,,0x5C59,
0.028020900000000,,0x4FED,
0.028027400000000,,0x782E,
0.028033900000000,,0x15DC,
0.028040410000000,,0x2AED,
0.028046910000000,,0x7B95,
0.028053420000000,,0x444D,
0.028059920000000,,0x5AF2,
0.028066420000000,,0x48CD,
0.028072930000000,,0x25C2,
0.028079430000000,,0x775D,
0.028085940000000,,0x7E62,
0.028092440000000,,0x6E3B,
0.028098940000000,,0x3A6D,
0.028105450000000,,0x60E2,
0.028111950000000,,0x0329,
0.028118460000000,,0x4238,
0.028124960000000,,0x6D16,
0.028131470000000,,0x5A61,
0.028137970000000,,0x17AF,
0.028144470000000,,0x7D16,
0.028150980000000,,0x43F8,
0.028157480000000,,0x2F14,
0.028163990000000,,0x26A5,
0.028170490000000,,0x0712,
0.028177000000000,,0x4C10,
0.028183500000000,,0x5FA0,
0.028190000000000,,0x0E11,
0.028196510000000,,0x3AF3,
0.028203010000000,,0x1517,
0.028209520000000,,0x30CD,
0.028216020000000,,0x47E3,
0.028222530000000,,0x2187,
0.028229030000000,,0x4BE4,
0.028235530000000,,0x23BC,
0.028242040000000,,0x5900,
0.028248540000000,,0x1088,
0.028255050000000,,0x1B59,
0.028261550000000,,0x3099,
0.028268060000000,,0x64FD,
0.028274560000000,,0x6BC8,
0.028281060000000,,0x7669,
0.028287570000000,,0x596D,
0.028294070000000,,0x3BD3,
0.028300580000000,,0x1071,
0.028307080000000,,0x1085,
0.028313580000000,,0x31CE,
0.028320090000000,,0x5BA9,
0.028326590000000,,0x5583,
0.028333100000000,,0x762F,
0.028339600000000,,0x2F72,
0.028346100000000,,0x5001,
0.028352610000000,,0x3337,
0.028359110000000,,0x1F88,
0.028365620000000,,0x68E1,
0.028372120000000,,0x7017,
0.028378630000000,,0x7730,
0.028385130000000,,0x5539,
0.028391640000000,,0x6513,
0.028398140000000,,0x1A71,
0.028404640000000,,0x35D1,
0.028411150000000,,0x3348,
0.028417650000000,,0x61D2,
0.028424160000000,,0x4254,
0.028430660000000,,0x4EC0,
0.028437170000000,,0x57DF,
0.028443670000000,,0x5EA4,
0.028450170000000,,0x6DBE,
0.028456680000000,,0x1C5C,
0.028463180000000,,0x0331,
0.028469690000000,,0x060D,
0.028476190000000,,0x365B,
0.028482700000000,,0x6AB2,
0.028489200000000,,0x2757,
0.028495700000000,,0x10AA,
0.028502210000000,,0x4EBE,
0.028508710000000,,0x2108,
0.028515220000000,,0x7287,
0.028521720000000,,0x3A7E,
0.028528230000000,,0x7928,
0.028534730000000,,0x6769,
0.028541240000000,,0x016F,
0.028547740000000,,0x3F9C,
0.028554240000000,,0x79BA,
0.028560750000000,,0x74C0,
0.028567250000000,,0x1C66,
0.028573760000000,,0x56A5,
0.028580260000000,,0x0F9A,
0.028586770000000,,0x2479,
0.028593270000000,,0x6931,
0.028599770000000,,0x3248,
0.028606280000000,,0x640F,
0.028612780000000,,0x3DEB,
0.028619290000000,,0x4833,
0.028625790000000,,0x15BD,
0.028632300000000,,0x67EA,
0.028638800000000,,0x5E50,
0.028645300000000,,0x08B3,
0.028651810000000,,0x3570,
0.028658310000000,,0x3990,
0.028664820000000,,0x476C,
0.028671320000000,,0x18E4,
0.028677830000000,,0x5226,
0.028684330000000,,0x0394,
0.028690840000000,,0x2EE1,
0.028697340000000,,0x0ABE,
0.028703840000000,,0x145C,
0.028710350000000,,0x2DDE,
0.028716850000000,,0x7BF5,
0.028723360000000,,0x01C7,
0.028729860000000,,0x79A1,
0.028736370000000,,0x6D24,
0.028742870000000,,0x0FDB,
0.028749370000000,,0x69C5,
0.028755880000000,,0x1303,
0.028762380000000,,0x0E68,
0.028768890000000,,0x33C1,
0.028775390000000,,0x6B9F,
0.028781900000000,,0x4CE0,
0.028788400000000,,0x1899,
0.028794900000000,,0x3D66,
0.028801410000000,,0x240C,
0.028807910000000,,0x4219,
0.028814420000000,,0x2166,
0.028820920000000,,0x404B,
0.028827430000000,,0x3AED,
0.028833930000000,,0x620C,
0.028840440000000,,0x7CF6,
0.028846940000000,,0x0141,
0.028853450000000,,0x0C27,
0.028859950000000,,0x46C6,
0.028866450000000,,0x0E58,
0.028872960000000,,0x7761,
0.028879460000000,,0x18D8,
0.028885970000000,,0x70DA,
0.028892470000000,,0x5E3E,
0.028898980000000,,0x7E39,
0.028905480000000,,0x76A8,
0.028911990000000,,0x163F,
0.028918490000000,,0x3E3E,
0.028925000000000,,0x6F28,
0.028931500000000,,0x267A,
0.028938000000000,,0x7B1D,
0.028944510000000,,0x468D,
0.028951010000000,,0x52D0,
0.028957520000000,,0x7783,
0.028964020000000,,0x0AE0,
0.028970530000000,,0x6230,
0.028977030000000,,0x5E0A,
0.028983540000000,,0x5CEB,
0.028990040000000,,0x5CFF,
0.028996550000000,,0x3AD0,
0.029003050000000,,0x0C3B,
0.029009560000000,,0x6481,
0.029016060000000,,0x0C05,
0.029022570000000,,0x5767,
0.029029070000000,,0x5C82,
0.029035570000000,,0x5590,
0.029042080000000,,0x2BA3,
0.029048580000000,,0x0879,
0.029055090000000,,0x27DD,
0.029061590000000,,0x0370,
0.029068100000000,,0x4BB1,
0.029074600000000,,0x4C69,
0.029081100000000,,0x5692,
0.029087610000000,,0x7099,
0.029094110000000,,0x46DE,
0.029100620000000,,0x4A6D,
0.029107120000000,,0x2C2C,
0.029113620000000,,0x280B,
0.029120130000000,,0x4022,
0.029126630000000,,0x3382,
0.029133140000000,,0x737F,
0.029139640000000,,0x78B4,
0.029146150000000,,0x421D,
0.029152650000000,,0x0352,
0.029159160000000,,0x5A10,
0.029165660000000,,0x1EB3,
0.029172160000000,,0x7463,
0.029178670000000,,0x43E2,
0.029185170000000,,0x3E7D,
0.029191680000000,,0x338E,
0.029198180000000,,0x5165,
0.029204690000000,,0x1512,
0.029211190000000,,0x1A74,
0.029217690000000,,0x5B2E,
0.029224200000000,,0x6CCE,
0.029230700000000,,0x1810,
0.029237210000000,,0x736D,
0.029243710000000,,0x69F3,
0.029250210000000,,0x20CB,
0.029256720000000,,0x2912,
0.029263220000000,,0x4D01,
0.029269730000000,,0x52AD,
0.029276230000000,,0x18C3,
0.029282730000000,,0x2D78,
0.029289240000000,,0x0EC8,
0.029295740000000,,0x75D2,
0.029302250000000,,0x08FC,
0.029308750000000,,0x4BCC,
0.029315260000000,,0x2329,
0.029321760000000,,0x710A,
0.029328270000000,,0x1C61,
0.029334770000000,,0x6D06,
0.029341280000000,,0x1E7A,
0.029347780000000,,0x3B1F,
0.029354280000000,,0x31F2,
0.029360790000000,,0x3D13,
0.029367290000000,,0x4B62,
0.029373800000000,,0x127C,
0.029380300000000,,0x31A9,
0.029386810000000,,0x2580,
0.029393310000000,,0x6730,
0.029399820000000,,0x4CA0,
0.029406320000000,,0x5DA8,
0.029412820000000,,0x41C2,
0.029419330000000,,0x713B,
0.029425830000000,,0x504C,
0.029432340000000,,0x18D7,
0.029438840000000,,0x4B57,
0.029445340000000,,0x3823,
0.029451850000000,,0x1D68,
0.029458350000000,,0x6078,
0.029464860000000,,0x10AE,
0.029471360000000,,0x28CC,
0.029477870000000,,0x7818,
0.029484370000000,,0x6252,
0.029490880000000,,0x4EDC,
0.029497380000000,,0x31DE,
0.029503880000000,,0x1FB2,
0.029510390000000,,0x7933,
0.029516890000000,,0x3ACB,
0.029523400000000,,0x5199,
0.029529900000000,,0x3477,
0.029536400000000,,0x07EE,
0.029542910000000,,0x2933,
0.029549410000000,,0x0171,
0.029555920000000,,0x4887,
0.029562420000000,,0x3581,
0.029568930000000,,0x3262,
0.029575430000000,,0x31C6,
0.029581930000000,,0x5B87,
0.029588440000000,,0x227E,
0.029594940000000,,0x0A18,
0.029601450000000,,0x6161,
0.029607950000000,,0x59CB,
0.029614460000000,,0x0AA8,
0.029620960000000,,0x272F,
0.029627470000000,,0x5553,
0.029633970000000,,0x75EB,
0.029640470000000,,0x00B9,
0.029646980000000,,0x0AAB,
0.029653480000000,,0x3EB8,
0.029659990000000,,0x5EE8,
0.029666490000000,,0x4ED3,
0.029672990000000,,0x4E15,
0.029679500000000,,0x3AE4,
0.029686000000000,,0x2EE9,
0.029692510000000,,0x4ED6,
0.029699010000000,,0x20EA,
0.029705510000000,,0x6562,
0.029712020000000,,0x572B,
0.029718520000000,,0x7FEF,
0.029725030000000,,0x07D9,
0.029731530000000,,0x1276,
0.029738040000000,,0x209D,
0.029744540000000,,0x5F50,
0.029751040000000,,0x4928,
0.029757550000000,,0x0984,
0.029764050000000,,0x0BE8,
0.029770560000000,,0x67C3,
0.029777060000000,,0x5648,
0.029783570000000,,0x262F,
0.029790070000000,,0x508E,
0.029796570000000,,0x0A54,
0.029803080000000,,0x064A,
0.029809580000000,,0x48C9,
0.029816090000000,,0x07F6,
0.029822590000000,,0x6D06,
0.029829090000000,,0x5A3C,
0.029835600000000,,0x7854,
0.029842100000000,,0x0579,
0.029848610000000,,0x5FDE,
0.029855110000000,,0x3C80,
0.029861620000000,,0x559B,
0.029868120000000,,0x765C,
0.029874620000000,,0x3774,
0.029881130000000,,0x5459,
0.029887630000000,,0x6102,
0.029894140000000,,0x05D6,
0.029900640000000,,0x2240,
0.029907150000000,,0x39FE,
0.029913650000000,,0x31E6,
0.029920150000000,,0x5B3C,
0.029926660000000,,0x7D89,
0.029933160000000,,0x7AC6,
0.029939670000000,,0x592D,
0.029946170000000,,0x7EE2,
0.029952680000000,,0x6CD5,
0.029959180000000,,0x45B2,
0.029965680000000,,0x239B,
0.029972190000000,,0x6218,
0.029978690000000,,0x5E9F,
0.029985200000000,,0x74E1,
0.029991700000000,,0x5016,
0.029998210000000,,0x4C8F,
0.030004710000000,,0x22D8,
0.030011220000000,,0x3B63,
0.030017720000000,,0x563F,
0.030024220000000,,0x1C1D,
0.030030730000000,,0x4E8D,
0.030037230000000,,0x7C3F,
0.030043740000000,,0x0A7B,
0.030050240000000,,0x3D7C,
0.030056750000000,,0x7123,
0.030063250000000,,0x1479,
0.030069760000000,,0x439A,
0.030076260000000,,0x7B84,
0.030082760000000,,0x08DB,
0.030089270000000,,0x70D4,
0.030095770000000,,0x6D3E,
