Time [s],Packet ID,MOSI,MISO
0.000000060000000,,0x61D2,
0.000006560000000,,0x4254,
0.000013070000000,,0x4EC0,
0.000019570000000,,0x57DF,
0.000026070000000,,0x5EA4,
0.000032580000000,,0x6DBE,
0.000039080000000,,0x1C5C,
0.000045590000000,,0x0331,
0.000052090000000,,0x060D,
0.000058600000000,,0x365B,
0.000065100000000,,0x6AB2,
0.000071600000000,,0x2757,
0.000078110000000,,0x10AA,
0.000084610000000,,0x4EBE,
0.000091120000000,,0x2108,
0.000097620000000,,0x7287,
0.000104120000000,,0x3A7E,
0.000110630000000,,0x7928,
0.000117130000000,,0x6769,
0.000123640000000,,0x016F,
0.000130140000000,,0x3F9C,
0.000136640000000,,0x79BA,
0.000143150000000,,0x74C0,
0.000149650000000,,0x1C66,
0.000156160000000,,0x56A5,
0.000162660000000,,0x0F9A,
0.000169160000000,,0x2479,
0.000175670000000,,0x6931,
0.000182170000000,,0x3248,
0.000188680000000,,0x640F,
0.000195180000000,,0x3DEB,
0.000201680000000,,0x4833,
0.000208190000000,,0x15BD,
0.000214690000000,,0x67EA,
0.000221200000000,,0x5E50,
0.000227700000000,,0x08B3,
0.000234200000000,,0x3570,
0.000240710000000,,0x3990,
0.000247210000000,,0x476C,
0.000253720000000,,0x18E4,
0.000260220000000,,0x5226,
0.000266730000000,,0x0394,
0.000273230000000,,0x2EE1,
0.000279730000000,,0x0ABE,
0.000286240000000,,0x145C,
0.000292740000000,,0x2DDE,
0.000299250000000,,0x7BF5,
0.000305750000000,,0x01C7,
0.000312260000000,,0x79A1,
0.000318760000000,,0x6D24,
0.000325260000000,,0x0FDB,
0.000331770000000,,0x69C5,
0.000338270000000,,0x1303,
0.000344780000000,,0x0E68,
0.000351280000000,,0x33C1,
0.000357790000000,,0x6B9F,
0.000364290000000,,0x4CE0,
0.000370790000000,,0x1899,
0.000377300000000,,0x3D66,
0.000383800000000,,0x240C,
0.000390310000000,,0x4219,
0.000396810000000,,0x2166,
0.000403320000000,,0x404B,
0.000409820000000,,0x3AED,
0.000416320000000,,0x620C,
0.000422830000000,,0x7CF6,
0.000429330000000,,0x0141,
0.000435840000000,,0x0C27,
0.000442340000000,,0x46C6,
0.000448850000000,,0x0E58,
0.000455350000000,,0x7761,
0.000461850000000,,0x18D8,
0.000468360000000,,0x70DA,
0.000474860000000,,0x5E3E,
0.000481370000000,,0x7E39,
0.000487870000000,,0x76A8,
0.000494380000000,,0x163F,
0.000500880000000,,0x3E3E,
0.000507380000000,,0x6F28,
0.000513890000000,,0x267A,
0.000520390000000,,0x7B1D,
0.000526900000000,,0x468D,
0.000533400000000,,0x52D0,
0.000539910000000,,0x7783,
0.000546410000000,,0x0AE0,
0.000552920000000,,0x6230,
0.000559420000000,,0x5E0A,
0.000565920000000,,0x5CEB,
0.000572430000000,,0x5CFF,
0.000578930000000,,0x3AD0,
0.000585440000000,,0x0C3B,
0.000591940000000,,0x6481,
0.000598450000000,,0x0C05,
0.000604950000000,,0x5767,
0.000611460000000,,0x5C82,
0.000617960000000,,0x5590,
0.000624460000000,,0x2BA3,
0.000630970000000,,0x0879,
0.000637470000000,,0x27DD,
0.000643980000000,,0x0370,
0.000650480000000,,0x4BB1,
0.000656990000000,,0x4C69,
0.000663490000000,,0x5692,
0.000670000000000,,0x7099,
0.000676500000000,,0x46DE,
0.000683000000000,,0x4A6D,
0.000689510000000,,0x2C2C,
0.000696010000000,,0x280B,
0.000702520000000,,0x4022,
0.000709020000000,,0x3382,
0.000715530000000,,0x737F,
0.000722030000000,,0x78B4,
0.000728540000000,,0x421D,
0.000735040000000,,0x0352,
0.000741550000000,,0x5A10,
0.000748050000000,,0x1EB3,
0.000754560000000,,0x7463,
0.000761060000000,,0x43E2,
0.000767560000000,,0x3E7D,
0.000774070000000,,0x338E,
0.000780570000000,,0x5165,
0.000787080000000,,0x1512,
0.000793580000000,,0x1A74,
0.000800090000000,,0x5B2E,
0.000806590000000,,0x6CCE,
0.000813100000000,,0x1810,
0.000819600000000,,0x736D,
0.000826100000000,,0x69F3,
0.000832610000000,,0x20CB,
0.000839110000000,,0x2912,
0.000845620000000,,0x4D01,
0.000852120000000,,0x52AD,
0.000858630000000,,0x18C3,
0.000865130000000,,0x2D78,
0.000871640000000,,0x0EC8,
0.000878140000000,,0x75D2,
0.000884650000000,,0x08FC,
0.000891150000000,,0x4BCC,
0.000897660000000,,0x2329,
0.000904160000000,,0x710A,
0.000910660000000,,0x1C61,
0.000917170000000,,0x6D06,
0.000923670000000,,0x1E7A,
0.000930180000000,,0x3B1F,
0.000936680000000,,0x31F2,
0.000943190000000,,0x3D13,
0.000949690000000,,0x4B62,
0.000956200000000,,0x127C,
0.000962700000000,,0x31A9,
0.000969210000000,,0x2580,
0.000975710000000,,0x6730,
0.000982220000000,,0x4CA0,
0.000988720000000,,0x5DA8,
0.000995230000000,,0x41C2,
0.001001730000000,,0x713B,
0.001008230000000,,0x504C,
0.001014740000000,,0x18D7,
0.001021240000000,,0x4B57,
0.001027750000000,,0x3823,
0.001034250000000,,0x1D68,
0.001040760000000,,0x6078,
0.001047260000000,,0x10AE,
0.001053770000000,,0x28CC,
0.001060270000000,,0x7818,
0.001066780000000,,0x6252,
0.001073280000000,,0x4EDC,
0.001079790000000,,0x31DE,
0.001086290000000,,0x1FB2,
0.001092800000000,,0x7933,
0.001099300000000,,0x3ACB,
0.001105800000000,,0x5199,
0.001112310000000,,0x3477,
0.001118810000000,,0x07EE,
0.001125320000000,,0x2933,
0.001131820000000,,0x0171,
0.001138330000000,,0x4887,
0.001144830000000,,0x3581,
0.001151340000000,,0x3262,
0.001157840000000,,0x31C6,
0.001164350000000,,0x5B87,
0.001170850000000,,0x227E,
0.001177360000000,,0x0A18,
0.001183860000000,,0x6161,
0.001190370000000,,0x59CB,
0.001196870000000,,0x0AA8,
0.001203380000000,,0x272F,
0.001209880000000,,0x5553,
0.001216380000000,,0x75EB,
0.001222890000000,,0x00B9,
0.001229390000000,,0x0AAB,
0.001235900000000,,0x3EB8,
0.001242400000000,,0x5EE8,
0.001248910000000,,0x4ED3,
0.001255410000000,,0x4E15,
0.001261920000000,,0x3AE4,
0.001268420000000,,0x2EE9,
0.001274920000000,,0x4ED6,
0.001281430000000,,0x20EA,
0.001287930000000,,0x6562,
0.001294440000000,,0x572B,
0.001300940000000,,0x7FEF,
0.001307450000000,,0x07D9,
0.001313950000000,,0x1276,
0.001320450000000,,0x209D,
0.001326960000000,,0x5F50,
0.001333460000000,,0x4928,
0.001339970000000,,0x0984,
0.001346470000000,,0x0BE8,
0.001352980000000,,0x67C3,
0.001359480000000,,0x5648,
0.001365980000000,,0x262F,
0.001372490000000,,0x508E,
0.001378990000000,,0x0A54,
0.001385500000000,,0x064A,
0.001392000000000,,0x48C9,
0.001398510000000,,0x07F6,
0.001405010000000,,0x6D06,
0.001411510000000,,0x5A3C,
0.001418020000000,,0x7854,
0.001424520000000,,0x0579,
0.001431030000000,,0x5FDE,
0.001437530000000,,0x3C80,
0.001444040000000,,0x559B,
0.001450540000000,,0x765C,
0.001457040000000,,0x3774,
0.001463550000000,,0x5459,
0.001470050000000,,0x6102,
0.001476560000000,,0x05D6,
0.001483060000000,,0x2240,
0.001489570000000,,0x39FE,
0.001496070000000,,0x31E6,
0.001502580000000,,0x5B3C,
0.001509080000000,,0x7D89,
0.001515580000000,,0x7AC6,
0.001522090000000,,0x592D,
0.001528590000000,,0x7EE2,
0.001535100000000,,0x6CD5,
0.001541600000000,,0x45B2,
0.001548110000000,,0x239B,
0.001554610000000,,0x6218,
0.001561110000000,,0x5E9F,
0.001567620000000,,0x74E1,
0.001574120000000,,0x5016,
0.001580630000000,,0x4C8F,
0.001587130000000,,0x22D8,
0.001593640000000,,0x3B63,
0.001600140000000,,0x563F,
0.001606650000000,,0x1C1D,
0.001613150000000,,0x4E8D,
0.001619660000000,,0x7C3F,
0.001626160000000,,0x0A7B,
0.001632660000000,,0x3D7C,
0.001639170000000,,0x7123,
0.001645670000000,,0x1479,
0.001652180000000,,0x439A,
0.001658680000000,,0x7B84,
0.001665190000000,,0x08DB,
0.001671690000000,,0x70D4,
0.001678200000000,,0x6D3E,
0.001684700000000,,0x1EB2,
0.001691200000000,,0x7CEE,
0.001697710000000,,0x4574,
0.001704210000000,,0x576A,
0.001710720000000,,0x7615,
0.001717220000000,,0x3EA0,
0.001723720000000,,0x1ADD,
0.001730230000000,,0x159E,
0.001736730000000,,0x7EC6,
0.001743240000000,,0x0A1C,
0.001749740000000,,0x4355,
0.001756240000000,,0x4390,
0.001762750000000,,0x2EF6,
0.001769250000000,,0x3140,
0.001775760000000,,0x6A47,
0.001782260000000,,0x4AD7,
0.001788770000000,,0x3F10,
0.001795270000000,,0x1D08,
0.001801770000000,,0x25F2,
0.001808280000000,,0x33FD,
0.001814780000000,,0x0D25,
0.001821290000000,,0x5201,
0.001827790000000,,0x7CCA,
0.001834300000000,,0x23BD,
0.001840800000000,,0x518D,
0.001847300000000,,0x161E,
0.001853810000000,,0x724E,
0.001860310000000,,0x7502,
0.001866820000000,,0x0B38,
0.001873320000000,,0x6407,
0.001879830000000,,0x7983,
0.001886330000000,,0x7C85,
0.001892840000000,,0x5D01,
0.001899340000000,,0x4B34,
0.001905850000000,,0x2078,
0.001912350000000,,0x76CB,
0.001918860000000,,0x4A22,
0.001925360000000,,0x16D6,
0.001931870000000,,0x71F9,
0.001938370000000,,0x42CF,
0.001944870000000,,0x55CA,
0.001951380000000,,0x3BBD,
0.001957880000000,,0x22BD,
0.001964390000000,,0x1016,
0.001970890000000,,0x2AEA,
0.001977400000000,,0x4036,
0.001983900000000,,0x55AD,
0.001990410000000,,0x4594,
0.001996910000000,,0x100E,
0.002003410000000,,0x2A99,
0.002009920000000,,0x5830,
0.002016420000000,,0x51F5,
0.002022930000000,,0x17A1,
0.002029430000000,,0x0A50,
0.002035940000000,,0x6038,
0.002042440000000,,0x11D9,
0.002048950000000,,0x1723,
0.002055450000000,,0x19A4,
0.002061960000000,,0x12CA,
0.002068460000000,,0x008F,
0.002074970000000,,0x7D25,
0.002081470000000,,0x5A89,
0.002087970000000,,0x14A3,
0.002094480000000,,0x152C,
0.002100980000000,,0x6DD4,
0.002107490000000,,0x48E2,
0.002113990000000,,0x5AB2,
0.002120500000000,,0x0DFC,
0.002127000000000,,0x5966,
0.002133500000000,,0x226A,
0.002140010000000,,0x6C37,
0.002146510000000,,0x578A,
0.002153020000000,,0x3171,
0.002159520000000,,0x622C,
0.002166030000000,,0x7C4D,
0.002172530000000,,0x5EB6,
0.002179030000000,,0x7CF9,
0.002185540000000,,0x7E8A,
0.002192040000000,,0x2971,
0.002198550000000,,0x111C,
0.002205050000000,,0x7A45,
0.002211560000000,,0x0612,
0.002218060000000,,0x49CD,
0.002224570000000,,0x201F,
0.002231070000000,,0x08E2,
0.002237580000000,,0x7891,
0.002244080000000,,0x2C59,
0.002250580000000,,0x0323,
0.002257090000000,,0x530C,
0.002263590000000,,0x17C6,
0.002270100000000,,0x7479,
0.002276600000000,,0x528B,
0.002283110000000,,0x2B56,
0.002289610000000,,0x65F9,
0.002296120000000,,0x0867,
0.002302620000000,,0x50C6,
0.002309130000000,,0x4F4B,
0.002315630000000,,0x0D13,
0.002322130000000,,0x61C9,
0.002328640000000,,0x5BB0,
0.002335140000000,,0x5D7D,
0.002341650000000,,0x68BF,
0.002348150000000,,0x423D,
0.002354660000000,,0x47AF,
0.002361160000000,,0x46AC,
0.002367670000000,,0x5AE6,
0.002374170000000,,0x2EE2,
0.002380670000000,,0x1329,
0.002387180000000,,0x1FE7,
0.002393680000000,,0x16E6,
0.002400190000000,,0x3559,
0.002406690000000,,0x3188,
0.002413200000000,,0x69F0,
0.002419700000000,,0x7D1A,
0.002426210000000,,0x61E2,
0.002432710000000,,0x42B2,
0.002439220000000,,0x7ECC,
0.002445720000000,,0x5F6E,
0.002452220000000,,0x7ACE,
0.002458730000000,,0x5903,
0.002465230000000,,0x091F,
0.002471740000000,,0x10E2,
0.002478240000000,,0x0BA1,
0.002484750000000,,0x2A51,
0.002491250000000,,0x5B87,
0.002497760000000,,0x6638,
0.002504260000000,,0x4953,
0.002510770000000,,0x55EA,
0.002517270000000,,0x3B06,
0.002523780000000,,0x7D4A,
0.002530280000000,,0x60C8,
0.002536790000000,,0x12A6,
0.002543290000000,,0x671F,
0.002549790000000,,0x33D0,
0.002556300000000,,0x2709,
0.002562800000000,,0x66C6,
0.002569310000000,,0x3D6A,
0.002575810000000,,0x0616,
0.002582320000000,,0x2FBF,
0.002588820000000,,0x790F,
0.002595330000000,,0x1837,
0.002601830000000,,0x0C33,
0.002608340000000,,0x64AF,
0.002614840000000,,0x7BF8,
0.002621350000000,,0x2B50,
0.002627850000000,,0x1291,
0.002634360000000,,0x5C5A,
0.002640860000000,,0x123C,
0.002647370000000,,0x30DE,
0.002653870000000,,0x1A6F,
0.002660380000000,,0x068C,
0.002666880000000,,0x3C38,
0.002673390000000,,0x13FB,
0.002679890000000,,0x0D39,
0.002686400000000,,0x3400,
0.002692900000000,,0x3DDC,
0.002699410000000,,0x3730,
0.002705910000000,,0x771A,
0.002712420000000,,0x44B6,
0.002718920000000,,0x4034,
0.002725430000000,,0x44B7,
0.002731930000000,,0x48B9,
0.002738430000000,,0x4221,
0.002744940000000,,0x21AE,
0.002751440000000,,0x07BA,
0.002757950000000,,0x4E6B,
0.002764450000000,,0x0875,
0.002770960000000,,0x4181,
0.002777460000000,,0x2D9D,
0.002783970000000,,0x2753,
0.002790470000000,,0x76D8,
0.002796980000000,,0x17AE,
0.002803480000000,,0x31DD,
0.002809990000000,,0x0625,
0.002816490000000,,0x7288,
0.002823000000000,,0x01F3,
0.002829500000000,,0x1F35,
0.002836010000000,,0x0438,
0.002842510000000,,0x17BF,
0.002849010000000,,0x390D,
0.002855520000000,,0x6F48,
0.002862020000000,,0x63F0,
0.002868530000000,,0x584E,
0.002875030000000,,0x6364,
0.002881540000000,,0x78C9,
0.002888040000000,,0x691B,
0.002894540000000,,0x6781,
0.002901050000000,,0x0263,
0.002907550000000,,0x57A6,
0.002914060000000,,0x5796,
0.002920560000000,,0x1336,
0.002927070000000,,0x6071,
0.002933570000000,,0x5C4B,
0.002940070000000,,0x1AEC,
0.002946580000000,,0x59B3,
0.002953080000000,,0x0B17,
0.002959590000000,,0x5F31,
0.002966090000000,,0x4069,
0.002972590000000,,0x6F0A,
0.002979100000000,,0x739D,
0.002985600000000,,0x6A8C,
0.002992110000000,,0x50F7,
0.002998610000000,,0x0366,
0.003005120000000,,0x78C2,
0.003011620000000,,0x34E4,
0.003018120000000,,0x588C,
0.003024630000000,,0x71E7,
0.003031130000000,,0x35D4,
0.003037640000000,,0x19F1,
0.003044140000000,,0x7D1F,
0.003050640000000,,0x0F1D,
0.003057150000000,,0x1D34,
0.003063650000000,,0x070E,
0.003070160000000,,0x6E57,
0.003076660000000,,0x5DFD,
0.003083170000000,,0x2E17,
0.003089670000000,,0x7EA9,
0.003096170000000,,0x305D,
0.003102680000000,,0x4550,
0.003109180000000,,0x31A3,
0.003115690000000,,0x70F2,
0.003122190000000,,0x5EAB,
0.003128700000000,,0x5633,
0.003135200000000,,0x7A41,
0.003141710000000,,0x6060,
0.003148210000000,,0x10DD,
0.003154710000000,,0x30CA,
0.003161220000000,,0x7C40,
0.003167720000000,,0x3067,
0.003174230000000,,0x5482,
0.003180730000000,,0x7B7F,
0.003187240000000,,0x565B,
0.003193740000000,,0x3FE5,
0.003200240000000,,0x34CE,
0.003206750000000,,0x4903,
0.003213250000000,,0x54C0,
0.003219760000000,,0x6B12,
0.003226260000000,,0x6499,
0.003232760000000,,0x0C76,
0.003239270000000,,0x4F61,
0.003245770000000,,0x58DA,
0.003252280000000,,0x07A5,
0.003258780000000,,0x31FD,
0.003265290000000,,0x42D8,
0.003271790000000,,0x6E34,
0.003278290000000,,0x45A6,
0.003284800000000,,0x45B4,
0.003291300000000,,0x54F3,
0.003297810000000,,0x3625,
0.003304310000000,,0x1C65,
0.003310810000000,,0x0B74,
0.003317320000000,,0x476A,
0.003323820000000,,0x2BCA,
0.003330320000000,,0x4550,
0.003336830000000,,0x75E5,
0.003343330000000,,0x33B9,
0.003349840000000,,0x6A20,
0.003356340000000,,0x34FE,
0.003362850000000,,0x0DA3,
0.003369350000000,,0x2787,
0.003375850000000,,0x5728,
0.003382360000000,,0x223E,
0.003388860000000,,0x4F29,
0.003395370000000,,0x1DC5,
0.003401870000000,,0x0CFC,
0.003408380000000,,0x18FD,
0.003414880000000,,0x1E9E,
0.003421380000000,,0x5E4F,
0.003427890000000,,0x7725,
0.003434390000000,,0x7FDD,
0.003440900000000,,0x1625,
0.003447400000000,,0x2F57,
0.003453900000000,,0x7A03,
0.003460410000000,,0x700D,
0.003466910000000,,0x221F,
0.003473420000000,,0x0359,
0.003479920000000,,0x07EF,
0.003486430000000,,0x21BE,
0.003492930000000,,0x07E7,
0.003499440000000,,0x2190,
0.003505940000000,,0x701A,
0.003512450000000,,0x5DA7,
0.003518950000000,,0x3E09,
0.003525450000000,,0x546D,
0.003531960000000,,0x0796,
0.003538460000000,,0x6CCA,
0.003544970000000,,0x3A24,
0.003551470000000,,0x6936,
0.003557970000000,,0x4DAD,
0.003564480000000,,0x36A4,
0.003570980000000,,0x1606,
0.003577490000000,,0x723D,
0.003583990000000,,0x6D04,
0.003590500000000,,0x0F60,
0.003597000000000,,0x3632,
0.003603500000000,,0x63DD,
0.003610010000000,,0x3624,
0.003616510000000,,0x14E8,
0.003623020000000,,0x0DE2,
0.003629520000000,,0x2E7D,
0.003636030000000,,0x6E51,
0.003642530000000,,0x2A95,
0.003649030000000,,0x7A2A,
0.003655540000000,,0x3C53,
0.003662040000000,,0x4FC8,
0.003668550000000,,0x522C,
0.003675050000000,,0x56E6,
0.003681560000000,,0x177A,
0.003688060000000,,0x102D,
0.003694560000000,,0x33B5,
0.003701070000000,,0x0C7C,
0.003707570000000,,0x1A13,
0.003714080000000,,0x6141,
0.003720580000000,,0x1D36,
0.003727090000000,,0x1614,
0.003733590000000,,0x637A,
0.003740090000000,,0x0FD2,
0.003746600000000,,0x2520,
0.003753100000000,,0x2123,
0.003759610000000,,0x2FC3,
0.003766110000000,,0x5A84,
0.003772620000000,,0x7A72,
0.003779120000000,,0x3D57,
0.003785620000000,,0x6821,
0.003792130000000,,0x37C8,
0.003798630000000,,0x744B,
0.003805140000000,,0x4377,
0.003811640000000,,0x1677,
0.003818140000000,,0x3F67,
0.003824650000000,,0x273A,
0.003831150000000,,0x3BF1,
0.003837660000000,,0x4596,
0.003844160000000,,0x0114,
0.003850670000000,,0x27B4,
0.003857170000000,,0x0A1F,
0.003863670000000,,0x5AC2,
0.003870180000000,,0x482B,
0.003876680000000,,0x15CE,
0.003883190000000,,0x7FEC,
0.003889690000000,,0x5A08,
0.003896190000000,,0x5A86,
0.003902700000000,,0x2F2E,
0.003909200000000,,0x7331,
0.003915710000000,,0x0E85,
0.003922210000000,,0x5E32,
0.003928710000000,,0x5C23,
0.003935220000000,,0x1B0E,
0.003941720000000,,0x4E56,
0.003948230000000,,0x6642,
0.003954730000000,,0x59F6,
0.003961230000000,,0x20D9,
0.003967740000000,,0x7C13,
0.003974240000000,,0x6C9C,
0.003980750000000,,0x4C66,
0.003987250000000,,0x6D1F,
0.003993760000000,,0x1684,
0.004000260000000,,0x258F,
0.004006760000000,,0x5CBD,
0.004013270000000,,0x2ABD,
0.004019770000000,,0x3EF9,
0.004026280000000,,0x5712,
0.004032780000000,,0x77AA,
0.004039280000000,,0x46BE,
0.004045790000000,,0x0FE7,
0.004052290000000,,0x0F7F,
0.004058800000000,,0x0DE2,
0.004065300000000,,0x6A3B,
0.004071810000000,,0x2D1A,
0.004078310000000,,0x1E1E,
0.004084820000000,,0x18E7,
0.004091320000000,,0x4BB1,
0.004097830000000,,0x082F,
0.004104330000000,,0x15D9,
0.004110830000000,,0x4412,
0.004117340000000,,0x2413,
0.004123840000000,,0x3D8F,
0.004130350000000,,0x6BCB,
0.004136850000000,,0x6FFE,
0.004143360000000,,0x52D6,
0.004149860000000,,0x00EB,
0.004156360000000,,0x5EDD,
0.004162870000000,,0x20CA,
0.004169370000000,,0x219F,
0.004175880000000,,0x4B97,
0.004182380000000,,0x3BBA,
0.004188880000000,,0x5D58,
0.004195390000000,,0x42BD,
0.004201890000000,,0x0107,
0.004208400000000,,0x7A38,
0.004214900000000,,0x2D14,
0.004221410000000,,0x2D1E,
0.004227910000000,,0x786C,
0.004234410000000,,0x41F7,
0.004240920000000,,0x5B64,
0.004247420000000,,0x7C8D,
0.004253930000000,,0x5D2F,
0.004260430000000,,0x3CC9,
0.004266930000000,,0x5C4F,
0.004273440000000,,0x38D8,
0.004279940000000,,0x43E8,
0.004286450000000,,0x2F49,
0.004292950000000,,0x495E,
0.004299460000000,,0x7F7D,
0.004305960000000,,0x5036,
0.004312460000000,,0x4C34,
0.004318970000000,,0x7D2F,
0.004325470000000,,0x4BBD,
0.004331980000000,,0x6E73,
0.004338480000000,,0x3B34,
0.004344990000000,,0x28F0,
0.004351490000000,,0x1EA2,
0.004358000000000,,0x7CB3,
0.004364500000000,,0x2A8F,
0.004371010000000,,0x2F05,
0.004377510000000,,0x6A33,
0.004384010000000,,0x2D34,
0.004390520000000,,0x69E3,
0.004397020000000,,0x64D0,
0.004403530000000,,0x05A2,
0.004410030000000,,0x01E5,
0.004416540000000,,0x2C46,
0.004423040000000,,0x7CB5,
0.004429550000000,,0x19A1,
0.004436050000000,,0x3873,
0.004442560000000,,0x1C42,
0.004449060000000,,0x306C,
0.004455570000000,,0x097D,
0.004462070000000,,0x4472,
0.004468580000000,,0x25DF,
0.004475080000000,,0x5D97,
0.004481580000000,,0x7AA9,
0.004488090000000,,0x272A,
0.004494590000000,,0x3BAC,
0.004501100000000,,0x2A6D,
0.004507600000000,,0x797B,
0.004514100000000,,0x3B92,
0.004520610000000,,0x198B,
0.004527110000000,,0x29FC,
0.004533620000000,,0x3965,
0.004540120000000,,0x6EAA,
0.004546630000000,,0x7415,
0.004553130000000,,0x351B,
0.004559630000000,,0x65A3,
0.004566140000000,,0x1879,
0.004572640000000,,0x7A02,
0.004579150000000,,0x7880,
0.004585650000000,,0x2489,
0.004592160000000,,0x6A4E,
0.004598660000000,,0x4274,
0.004605160000000,,0x4E7B,
0.004611670000000,,0x0828,
0.004618170000000,,0x2E7A,
0.004624680000000,,0x55F2,
0.004631180000000,,0x3B75,
0.004637690000000,,0x654C,
0.004644190000000,,0x6490,
0.004650700000000,,0x4093,
0.004657200000000,,0x7D41,
0.004663700000000,,0x7971,
0.004670210000000,,0x6EE0,
0.004676710000000,,0x2010,
0.004683220000000,,0x336F,
0.004689720000000,,0x1E8C,
0.004696230000000,,0x4F08,
0.004702730000000,,0x15F3,
0.004709240000000,,0x559D,
0.004715740000000,,0x0134,
0.004722250000000,,0x6349,
0.004728750000000,,0x16A3,
0.004735260000000,,0x1E97,
0.004741760000000,,0x12AA,
0.004748260000000,,0x4505,
0.004754770000000,,0x5E76,
0.004761270000000,,0x7F60,
0.004767780000000,,0x3EBA,
0.004774280000000,,0x0BB4,
0.004780790000000,,0x00B5,
0.004787290000000,,0x28B1,
0.004793790000000,,0x531E,
0.004800300000000,,0x0681,
